!Mini-Circuits Laboratory
!S-Parameters
!Model:AD5PS-1+
!Run/Lot/Date Code:MU38160//0951
!DATA FOR:UNIT#1
!Fixture/SN/Due:90-1-20-122/63678/01-15-11
!Connection:PORT-1-pin<1>;PORT-2-pin<8>;PORT-3-pin<7>;PORT-4-pin<6>;PORT-5-pin<5>;PORT-6-pin<4>

!Created: 04-21-2010 at 11:56 AM
!MODEL: AD5PS-1+
!S/N: Unit 1
#MHz S dB R 50
!Frequency        S11 dB  S11 DEG   S12 dB  S12 DEG   S13 dB  S13 DEG   S14 dB  S14 DEG   S15 dB  S15 DEG   S16 dB  S16 DEG
!                 S21 dB  S21 DEG   S22 dB  S22 DEG   S23 dB  S23 DEG   S24 dB  S24 DEG   S25 dB  S25 DEG   S26 dB  S26 DEG
!                 S31 dB  S31 DEG   S32 dB  S32 DEG   S33 dB  S33 DEG   S34 dB  S34 DEG   S35 dB  S35 DEG   S36 dB  S36 DEG
!                 S41 dB  S41 DEG   S42 dB  S42 DEG   S43 dB  S43 DEG   S44 dB  S44 DEG   S45 dB  S45 DEG   S46 dB  S46 DEG
!                 S51 dB  S51 DEG   S52 dB  S52 DEG   S53 dB  S53 DEG   S54 dB  S54 DEG   S55 dB  S55 DEG   S56 dB  S56 DEG
!                 S61 dB  S61 DEG   S62 dB  S62 DEG   S63 dB  S63 DEG   S64 dB  S64 DEG   S65 dB  S65 DEG   S66 dB  S66 DEG
    .3000     -2.168045E+001  1.383566E+002 -7.393138E+000  3.530270E+000 -7.364393E+000  3.543028E+000 -7.378526E+000  3.485708E+000 -7.364867E+000  3.509310E+000 -7.372423E+000  3.535924E+000
              -7.408605E+000  3.563591E+000 -1.073266E+001  1.365682E+002 -1.891566E+001 -3.108939E+001 -3.418476E+001 -5.141259E+001 -3.947306E+001 -7.837946E+001 -3.426197E+001 -5.207105E+001
              -7.360165E+000  3.591029E+000 -1.887110E+001 -3.116535E+001 -1.126275E+001  1.360814E+002 -1.843018E+001 -3.053376E+001 -3.981829E+001 -1.666649E+002 -1.846828E+001 -3.043739E+001
              -7.399041E+000  3.481306E+000 -3.426603E+001 -5.115139E+001 -1.851687E+001 -3.048532E+001 -1.076146E+001  1.367650E+002 -1.837682E+001 -2.937829E+001 -4.056547E+001 -1.375121E+002
              -7.378391E+000  3.521363E+000 -3.966669E+001 -7.900218E+001 -3.991347E+001 -1.669401E+002 -1.840807E+001 -2.962042E+001 -1.134431E+001  1.363013E+002 -1.880239E+001 -3.003506E+001
              -7.392511E+000  3.459900E+000 -3.438380E+001 -5.187753E+001 -1.853678E+001 -3.046623E+001 -4.067575E+001 -1.366246E+002 -1.884047E+001 -3.006159E+001 -1.076643E+001  1.368389E+002
    .4000     -2.272655E+001  1.434186E+002 -7.368021E+000  2.731503E+000 -7.357292E+000  2.656600E+000 -7.357734E+000  2.741307E+000 -7.344491E+000  2.712467E+000 -7.353599E+000  2.664345E+000
              -7.369425E+000  2.796149E+000 -1.209127E+001  1.368945E+002 -2.009156E+001 -3.176892E+001 -3.579501E+001 -4.745711E+001 -4.243555E+001 -7.171719E+001 -3.583710E+001 -4.763125E+001
              -7.327015E+000  2.755042E+000 -2.005894E+001 -3.190869E+001 -1.263586E+001  1.366998E+002 -1.961975E+001 -3.154621E+001 -4.299362E+001  1.736343E+002 -1.963966E+001 -3.176243E+001
              -7.360523E+000  2.673971E+000 -3.589056E+001 -4.734562E+001 -1.968460E+001 -3.159559E+001 -1.210646E+001  1.371712E+002 -1.952011E+001 -3.067802E+001 -4.508810E+001 -1.522562E+002
              -7.343821E+000  2.670122E+000 -4.271335E+001 -7.314998E+001 -4.294991E+001  1.723948E+002 -1.953172E+001 -3.070958E+001 -1.269975E+001  1.370223E+002 -1.993893E+001 -3.095662E+001
              -7.358453E+000  2.664892E+000 -3.600175E+001 -4.769956E+001 -1.970553E+001 -3.162227E+001 -4.533486E+001 -1.512402E+002 -1.995798E+001 -3.090491E+001 -1.211977E+001  1.371381E+002
    .5000     -2.329413E+001  1.468629E+002 -7.356251E+000  2.265097E+000 -7.345390E+000  2.242818E+000 -7.342304E+000  2.210623E+000 -7.332273E+000  2.235239E+000 -7.340350E+000  2.222253E+000
              -7.348911E+000  2.289972E+000 -1.308362E+001  1.376126E+002 -2.096332E+001 -3.148199E+001 -3.703563E+001 -4.408709E+001 -4.513350E+001 -6.467820E+001 -3.715430E+001 -4.436711E+001
              -7.310817E+000  2.247086E+000 -2.093366E+001 -3.167237E+001 -1.360382E+001  1.375612E+002 -2.047733E+001 -3.186355E+001 -4.472424E+001  1.565367E+002 -2.050820E+001 -3.188210E+001
              -7.345489E+000  2.240004E+000 -3.714144E+001 -4.358730E+001 -2.055948E+001 -3.158408E+001 -1.308473E+001  1.377161E+002 -2.035951E+001 -3.082186E+001 -4.867190E+001 -1.680875E+002
              -7.332575E+000  2.217192E+000 -4.526563E+001 -6.563914E+001 -4.471453E+001  1.565449E+002 -2.036504E+001 -3.084084E+001 -1.366919E+001  1.378495E+002 -2.075440E+001 -3.092659E+001
              -7.339620E+000  2.242465E+000 -3.724358E+001 -4.427473E+001 -2.058306E+001 -3.169145E+001 -4.900355E+001 -1.659490E+002 -2.077777E+001 -3.085773E+001 -1.309094E+001  1.378111E+002
    .6000     -2.371107E+001  1.490415E+002 -7.335461E+000  1.954260E+000 -7.332922E+000  1.922307E+000 -7.325914E+000  1.891698E+000 -7.313951E+000  1.887413E+000 -7.322118E+000  1.902835E+000
              -7.336019E+000  1.956908E+000 -1.385091E+001  1.382307E+002 -2.162030E+001 -3.128825E+001 -3.788205E+001 -4.034286E+001 -4.692143E+001 -5.605995E+001 -3.797963E+001 -4.121607E+001
              -7.302533E+000  1.925972E+000 -2.158648E+001 -3.129901E+001 -1.437028E+001  1.381268E+002 -2.115802E+001 -3.168332E+001 -4.585007E+001  1.431906E+002 -2.117633E+001 -3.176616E+001
              -7.330282E+000  1.917995E+000 -3.793352E+001 -4.028165E+001 -2.122008E+001 -3.155477E+001 -1.384915E+001  1.383258E+002 -2.099343E+001 -3.075397E+001 -5.168232E+001  1.765821E+002
              -7.319494E+000  1.870870E+000 -4.713592E+001 -5.585172E+001 -4.565215E+001  1.437687E+002 -2.099986E+001 -3.072865E+001 -1.441801E+001  1.385775E+002 -2.138141E+001 -3.087160E+001
              -7.328143E+000  1.912992E+000 -3.805966E+001 -4.105643E+001 -2.123939E+001 -3.161239E+001 -5.183472E+001  1.773372E+002 -2.141744E+001 -3.074098E+001 -1.385496E+001  1.384108E+002
    .7000     -2.402673E+001  1.506794E+002 -7.330688E+000  1.708676E+000 -7.324076E+000  1.672091E+000 -7.317800E+000  1.673715E+000 -7.304667E+000  1.664758E+000 -7.311089E+000  1.668500E+000
              -7.328421E+000  1.710863E+000 -1.449151E+001  1.387561E+002 -2.215731E+001 -3.094435E+001 -3.847109E+001 -3.832899E+001 -4.803720E+001 -4.811732E+001 -3.861616E+001 -3.936172E+001
              -7.294568E+000  1.630269E+000 -2.213584E+001 -3.106784E+001 -1.501670E+001  1.386721E+002 -2.171413E+001 -3.166813E+001 -4.663799E+001  1.358804E+002 -2.173769E+001 -3.169193E+001
              -7.320783E+000  1.656325E+000 -3.848792E+001 -3.799965E+001 -2.177215E+001 -3.147723E+001 -1.448941E+001  1.388417E+002 -2.151235E+001 -3.061653E+001 -5.313057E+001  1.559228E+002
              -7.307125E+000  1.661699E+000 -4.849699E+001 -4.721850E+001 -4.642791E+001  1.348295E+002 -2.153187E+001 -3.057094E+001 -1.505083E+001  1.391564E+002 -2.191478E+001 -3.062024E+001
              -7.318508E+000  1.656884E+000 -3.861020E+001 -3.864762E+001 -2.178693E+001 -3.153318E+001 -5.353121E+001  1.570055E+002 -2.194842E+001 -3.053701E+001 -1.448932E+001  1.388881E+002
    .8000     -2.433449E+001  1.519841E+002 -7.316184E+000  1.509678E+000 -7.311044E+000  1.464344E+000 -7.307917E+000  1.474604E+000 -7.295187E+000  1.476470E+000 -7.301596E+000  1.475677E+000
              -7.311406E+000  1.516474E+000 -1.503166E+001  1.390332E+002 -2.260891E+001 -3.048387E+001 -3.893542E+001 -3.486705E+001 -4.888435E+001 -3.589339E+001 -3.907185E+001 -3.524435E+001
              -7.285674E+000  1.457611E+000 -2.258559E+001 -3.057446E+001 -1.555903E+001  1.390161E+002 -2.217857E+001 -3.128124E+001 -4.672830E+001  1.238118E+002 -2.219736E+001 -3.138418E+001
              -7.307704E+000  1.468379E+000 -3.898097E+001 -3.510500E+001 -2.223012E+001 -3.120508E+001 -1.502308E+001  1.391128E+002 -2.196654E+001 -3.050735E+001 -5.406947E+001  1.344698E+002
              -7.297711E+000  1.441086E+000 -4.925695E+001 -3.622443E+001 -4.689717E+001  1.241889E+002 -2.197458E+001 -3.043102E+001 -1.558081E+001  1.395629E+002 -2.237147E+001 -3.037375E+001
              -7.301831E+000  1.460640E+000 -3.910835E+001 -3.535494E+001 -2.225034E+001 -3.127035E+001 -5.440059E+001  1.373481E+002 -2.238854E+001 -3.032105E+001 -1.502745E+001  1.391776E+002
    .9000     -2.455284E+001  1.528779E+002 -7.306915E+000  1.342536E+000 -7.301286E+000  1.333396E+000 -7.301641E+000  1.317330E+000 -7.290802E+000  1.306763E+000 -7.298188E+000  1.322307E+000
              -7.306683E+000  1.361617E+000 -1.551683E+001  1.393895E+002 -2.301149E+001 -3.009311E+001 -3.927304E+001 -3.270805E+001 -4.933109E+001 -2.656596E+001 -3.946626E+001 -3.358591E+001
              -7.278960E+000  1.298858E+000 -2.298536E+001 -3.031501E+001 -1.604046E+001  1.393964E+002 -2.258802E+001 -3.105549E+001 -4.701738E+001  1.169431E+002 -2.261819E+001 -3.122161E+001
              -7.301985E+000  1.330266E+000 -3.932796E+001 -3.273403E+001 -2.264156E+001 -3.094472E+001 -1.551117E+001  1.394142E+002 -2.236552E+001 -3.029170E+001 -5.364482E+001  1.186262E+002
              -7.291617E+000  1.305317E+000 -4.960524E+001 -2.537730E+001 -4.696506E+001  1.169809E+002 -2.237162E+001 -3.029083E+001 -1.606183E+001  1.399454E+002 -2.277020E+001 -3.019939E+001
              -7.298289E+000  1.333349E+000 -3.954706E+001 -3.301550E+001 -2.266178E+001 -3.102808E+001 -5.395896E+001  1.198406E+002 -2.278277E+001 -3.007896E+001 -1.551241E+001  1.394796E+002
   1.0000     -2.476175E+001  1.537859E+002 -7.296989E+000  1.193085E+000 -7.294351E+000  1.181027E+000 -7.293342E+000  1.185643E+000 -7.283173E+000  1.143043E+000 -7.284287E+000  1.181538E+000
              -7.299509E+000  1.206570E+000 -1.593489E+001  1.396959E+002 -2.337361E+001 -2.990279E+001 -3.970437E+001 -3.148140E+001 -4.961749E+001 -1.978373E+001 -3.983622E+001 -3.252122E+001
              -7.272192E+000  1.139813E+000 -2.335538E+001 -3.002474E+001 -1.648234E+001  1.397476E+002 -2.298152E+001 -3.095940E+001 -4.700380E+001  1.113792E+002 -2.299929E+001 -3.103043E+001
              -7.290606E+000  1.185412E+000 -3.970864E+001 -3.117260E+001 -2.301895E+001 -3.085102E+001 -1.594690E+001  1.397225E+002 -2.271688E+001 -3.018015E+001 -5.307109E+001  1.053556E+002
              -7.280593E+000  1.158232E+000 -4.973194E+001 -1.800552E+001 -4.685268E+001  1.114383E+002 -2.272318E+001 -3.010978E+001 -1.648728E+001  1.402815E+002 -2.311634E+001 -3.001040E+001
              -7.287795E+000  1.170408E+000 -3.990169E+001 -3.172129E+001 -2.304285E+001 -3.087098E+001 -5.312987E+001  1.066849E+002 -2.314024E+001 -2.985789E+001 -1.593854E+001  1.398054E+002
   2.0000     -2.595969E+001  1.584009E+002 -7.262531E+000  3.803492E-001 -7.251151E+000  3.629699E-001 -7.240755E+000  4.277208E-001 -7.231204E+000  3.721330E-001 -7.242571E+000  4.187557E-001
              -7.257345E+000  3.615994E-001 -1.886702E+001  1.429144E+002 -2.569070E+001 -2.557171E+001 -4.131553E+001 -2.256771E+001 -4.726217E+001  8.206388E+000 -4.146856E+001 -2.332673E+001
              -7.224467E+000  3.300722E-001 -2.569497E+001 -2.567095E+001 -1.941950E+001  1.435018E+002 -2.538358E+001 -2.715949E+001 -4.622418E+001  7.092558E+001 -2.542777E+001 -2.745605E+001
              -7.247132E+000  3.470402E-001 -4.130672E+001 -2.214552E+001 -2.542511E+001 -2.728354E+001 -1.888372E+001  1.426800E+002 -2.509481E+001 -2.705390E+001 -4.772581E+001  6.304919E+001
              -7.240499E+000  3.324020E-001 -4.723565E+001  9.433994E+000 -4.616523E+001  7.300912E+001 -2.509983E+001 -2.715831E+001 -1.937922E+001  1.439198E+002 -2.546833E+001 -2.609945E+001
              -7.243566E+000  3.598987E-001 -4.146650E+001 -2.278362E+001 -2.546358E+001 -2.737785E+001 -4.780196E+001  6.366830E+001 -2.547614E+001 -2.624099E+001 -1.888288E+001  1.427877E+002
   3.0000     -2.639982E+001  1.587874E+002 -7.240963E+000 -1.120524E-001 -7.237310E+000 -1.103073E-001 -7.232316E+000 -1.097752E-001 -7.225086E+000 -1.301680E-001 -7.225369E+000 -1.106488E-001
              -7.243073E+000 -1.233496E-001 -2.044477E+001  1.466172E+002 -2.684349E+001 -2.071555E+001 -4.249995E+001 -1.567103E+001 -4.603673E+001  1.700403E+001 -4.270969E+001 -1.642576E+001
              -7.227658E+000 -1.758620E-001 -2.685328E+001 -2.071810E+001 -2.096791E+001  1.476903E+002 -2.665388E+001 -2.278032E+001 -4.515782E+001  5.858453E+001 -2.670289E+001 -2.298959E+001
              -7.235832E+000 -1.437588E-001 -4.252263E+001 -1.515592E+001 -2.669753E+001 -2.273682E+001 -2.049702E+001  1.463946E+002 -2.636199E+001 -2.308187E+001 -4.564476E+001  5.114317E+001
              -7.228940E+000 -1.503443E-001 -4.604993E+001  1.777016E+001 -4.516046E+001  5.829929E+001 -2.636477E+001 -2.309131E+001 -2.090093E+001  1.480097E+002 -2.666712E+001 -2.195720E+001
              -7.231308E+000 -1.359575E-001 -4.277604E+001 -1.621401E+001 -2.672134E+001 -2.283840E+001 -4.567201E+001  5.041502E+001 -2.668946E+001 -2.194150E+001 -2.047889E+001  1.465017E+002
   4.0000     -2.663523E+001  1.582408E+002 -7.236012E+000 -4.740330E-001 -7.233281E+000 -4.721561E-001 -7.231756E+000 -5.056576E-001 -7.227347E+000 -5.080839E-001 -7.227320E+000 -4.817752E-001
              -7.240081E+000 -4.769465E-001 -2.141812E+001  1.500743E+002 -2.744428E+001 -1.658388E+001 -4.305965E+001 -9.120420E+000 -4.519797E+001  2.035612E+001 -4.332338E+001 -1.000798E+001
              -7.228526E+000 -5.553225E-001 -2.742492E+001 -1.664490E+001 -2.189417E+001  1.513849E+002 -2.735473E+001 -1.880784E+001 -4.457177E+001  4.958834E+001 -2.738985E+001 -1.894988E+001
              -7.237907E+000 -5.088696E-001 -4.308305E+001 -9.202031E+000 -2.738330E+001 -1.872200E+001 -2.147121E+001  1.499016E+002 -2.708327E+001 -1.928645E+001 -4.474567E+001  4.452768E+001
              -7.229720E+000 -5.252482E-001 -4.512834E+001  2.008661E+001 -4.460822E+001  4.973362E+001 -2.710666E+001 -1.933225E+001 -2.179645E+001  1.516182E+002 -2.733224E+001 -1.806055E+001
              -7.231947E+000 -4.880052E-001 -4.338718E+001 -9.820144E+000 -2.742098E+001 -1.888698E+001 -4.474692E+001  4.497146E+001 -2.737380E+001 -1.806027E+001 -2.145573E+001  1.500515E+002
   5.0000     -2.676181E+001  1.571389E+002 -7.234502E+000 -7.825050E-001 -7.229182E+000 -8.039038E-001 -7.229132E+000 -8.126794E-001 -7.221449E+000 -8.227843E-001 -7.222363E+000 -8.013004E-001
              -7.237875E+000 -7.979395E-001 -2.205719E+001  1.528620E+002 -2.780841E+001 -1.348521E+001 -4.357040E+001 -3.948591E+000 -4.470837E+001  2.262584E+001 -4.378385E+001 -4.550752E+000
              -7.225033E+000 -8.715215E-001 -2.780194E+001 -1.345794E+001 -2.248198E+001  1.541306E+002 -2.779137E+001 -1.556615E+001 -4.429265E+001  4.556512E+001 -2.782386E+001 -1.577578E+001
              -7.234475E+000 -8.462882E-001 -4.350275E+001 -3.822485E+000 -2.781606E+001 -1.548726E+001 -2.211925E+001  1.525817E+002 -2.753575E+001 -1.611304E+001 -4.411039E+001  4.225178E+001
              -7.228373E+000 -8.491702E-001 -4.465023E+001  2.250086E+001 -4.426065E+001  4.584885E+001 -2.754888E+001 -1.605710E+001 -2.237371E+001  1.542868E+002 -2.772453E+001 -1.502882E+001
              -7.227937E+000 -8.208666E-001 -4.378913E+001 -4.220551E+000 -2.784884E+001 -1.564596E+001 -4.415066E+001  4.205449E+001 -2.777118E+001 -1.494306E+001 -2.209930E+001  1.527275E+002
   6.0000     -2.684322E+001  1.557420E+002 -7.232255E+000 -1.062993E+000 -7.228735E+000 -1.060582E+000 -7.229151E+000 -1.106985E+000 -7.224678E+000 -1.101329E+000 -7.223692E+000 -1.078886E+000
              -7.236910E+000 -1.051219E+000 -2.247269E+001  1.551799E+002 -2.802611E+001 -1.081907E+001 -4.360664E+001  1.673481E+000 -4.424084E+001  2.425665E+001 -4.396369E+001  9.580849E-001
              -7.226137E+000 -1.153304E+000 -2.802685E+001 -1.086828E+001 -2.286994E+001  1.565651E+002 -2.804421E+001 -1.281894E+001 -4.396746E+001  4.308141E+001 -2.808838E+001 -1.303198E+001
              -7.232771E+000 -1.117424E+000 -4.360094E+001  1.902875E+000 -2.806434E+001 -1.281122E+001 -2.254754E+001  1.550022E+002 -2.783474E+001 -1.326396E+001 -4.368889E+001  4.081755E+001
              -7.227466E+000 -1.110363E+000 -4.427444E+001  2.410619E+001 -4.393439E+001  4.264978E+001 -2.785172E+001 -1.328818E+001 -2.275697E+001  1.566424E+002 -2.800954E+001 -1.225111E+001
              -7.226868E+000 -1.087019E+000 -4.384771E+001  9.625245E-001 -2.811679E+001 -1.294722E+001 -4.365586E+001  4.070165E+001 -2.802888E+001 -1.223639E+001 -2.252207E+001  1.551855E+002
   7.0000     -2.688484E+001  1.540892E+002 -7.235352E+000 -1.325827E+000 -7.228867E+000 -1.332985E+000 -7.229169E+000 -1.366420E+000 -7.221787E+000 -1.374612E+000 -7.223385E+000 -1.351189E+000
              -7.237405E+000 -1.324728E+000 -2.278344E+001  1.569798E+002 -2.817743E+001 -8.616996E+000 -4.361397E+001  5.772598E+000 -4.397545E+001  2.583150E+001 -4.398355E+001  5.304780E+000
              -7.228880E+000 -1.419058E+000 -2.817751E+001 -8.724495E+000 -2.316581E+001  1.583161E+002 -2.822797E+001 -1.065167E+001 -4.375036E+001  4.145574E+001 -2.828530E+001 -1.085481E+001
              -7.235048E+000 -1.385137E+000 -4.366193E+001  6.071058E+000 -2.825435E+001 -1.062066E+001 -2.288088E+001  1.568475E+002 -2.803094E+001 -1.094282E+001 -4.329630E+001  4.023093E+001
              -7.228237E+000 -1.377394E+000 -4.400771E+001  2.569554E+001 -4.377773E+001  4.177385E+001 -2.805136E+001 -1.092908E+001 -2.304567E+001  1.583395E+002 -2.817251E+001 -1.002455E+001
              -7.227273E+000 -1.357304E+000 -4.397974E+001  5.339252E+000 -2.829111E+001 -1.079163E+001 -4.338642E+001  4.035547E+001 -2.820568E+001 -1.001556E+001 -2.285135E+001  1.569626E+002
   8.0000     -2.690325E+001  1.523305E+002 -7.235197E+000 -1.568630E+000 -7.230211E+000 -1.605583E+000 -7.228436E+000 -1.643298E+000 -7.223564E+000 -1.647343E+000 -7.222383E+000 -1.613702E+000
              -7.236737E+000 -1.580662E+000 -2.300933E+001  1.584731E+002 -2.827644E+001 -6.731653E+000 -4.353587E+001  1.019788E+001 -4.367040E+001  2.744514E+001 -4.394012E+001  9.213037E+000
              -7.228657E+000 -1.677501E+000 -2.827072E+001 -6.811998E+000 -2.336024E+001  1.598680E+002 -2.833167E+001 -8.665261E+000 -4.341045E+001  4.116044E+001 -2.839958E+001 -8.929064E+000
              -7.234181E+000 -1.645450E+000 -4.351542E+001  1.041877E+001 -2.836342E+001 -8.614329E+000 -2.310216E+001  1.583092E+002 -2.817115E+001 -8.844693E+000 -4.298486E+001  4.029530E+001
              -7.229238E+000 -1.640486E+000 -4.365184E+001  2.753107E+001 -4.344269E+001  4.162604E+001 -2.819526E+001 -8.992500E+000 -2.323687E+001  1.597215E+002 -2.829898E+001 -8.132348E+000
              -7.229300E+000 -1.621591E+000 -4.395245E+001  9.822941E+000 -2.841378E+001 -8.861940E+000 -4.302184E+001  3.972082E+001 -2.832406E+001 -8.103105E+000 -2.307606E+001  1.585358E+002
   9.0000     -2.692312E+001  1.505323E+002 -7.234775E+000 -1.806164E+000 -7.231502E+000 -1.852431E+000 -7.232152E+000 -1.897487E+000 -7.222974E+000 -1.885462E+000 -7.223161E+000 -1.851913E+000
              -7.239980E+000 -1.842858E+000 -2.319557E+001  1.596260E+002 -2.832612E+001 -5.023317E+000 -4.333093E+001  1.448113E+001 -4.319251E+001  2.915287E+001 -4.373405E+001  1.350403E+001
              -7.231334E+000 -1.945953E+000 -2.831816E+001 -5.141694E+000 -2.354853E+001  1.610658E+002 -2.842253E+001 -6.961765E+000 -4.305978E+001  4.122157E+001 -2.846429E+001 -7.142343E+000
              -7.236835E+000 -1.887113E+000 -4.333991E+001  1.423843E+001 -2.843073E+001 -6.849547E+000 -2.329092E+001  1.595537E+002 -2.827538E+001 -7.089009E+000 -4.272894E+001  4.057926E+001
              -7.231372E+000 -1.878216E+000 -4.328265E+001  2.926064E+001 -4.313909E+001  4.123941E+001 -2.828990E+001 -7.112905E+000 -2.340111E+001  1.608245E+002 -2.837264E+001 -6.404337E+000
              -7.230611E+000 -1.858160E+000 -4.371518E+001  1.352775E+001 -2.848405E+001 -7.053258E+000 -4.272382E+001  4.067326E+001 -2.840380E+001 -6.402802E+000 -2.326357E+001  1.597727E+002
  10.0000     -2.691272E+001  1.487070E+002 -7.243251E+000 -2.061811E+000 -7.235306E+000 -2.099672E+000 -7.235474E+000 -2.126498E+000 -7.227772E+000 -2.131276E+000 -7.224472E+000 -2.094362E+000
