!Mini-Circuits Laboratory
!S-Parameters
!Model:AD5PS-1+
!Run/Lot/Date Code:MU38160//0951
!DATA FOR:UNIT#2
!Fixture/SN/Due:90-1-20-122/63678/01-15-11
!Connection:PORT-1-pin<1>;PORT-2-pin<8>;PORT-3-pin<7>;PORT-4-pin<6>;PORT-5-pin<5>;PORT-6-pin<4>

!Created: 04-21-2010 at 11:56 AM
!MODEL: AD5PS-1+
!S/N: Unit 2
#MHz S dB R 50
!Frequency        S11 dB  S11 DEG   S12 dB  S12 DEG   S13 dB  S13 DEG   S14 dB  S14 DEG   S15 dB  S15 DEG   S16 dB  S16 DEG
!                 S21 dB  S21 DEG   S22 dB  S22 DEG   S23 dB  S23 DEG   S24 dB  S24 DEG   S25 dB  S25 DEG   S26 dB  S26 DEG
!                 S31 dB  S31 DEG   S32 dB  S32 DEG   S33 dB  S33 DEG   S34 dB  S34 DEG   S35 dB  S35 DEG   S36 dB  S36 DEG
!                 S41 dB  S41 DEG   S42 dB  S42 DEG   S43 dB  S43 DEG   S44 dB  S44 DEG   S45 dB  S45 DEG   S46 dB  S46 DEG
!                 S51 dB  S51 DEG   S52 dB  S52 DEG   S53 dB  S53 DEG   S54 dB  S54 DEG   S55 dB  S55 DEG   S56 dB  S56 DEG
!                 S61 dB  S61 DEG   S62 dB  S62 DEG   S63 dB  S63 DEG   S64 dB  S64 DEG   S65 dB  S65 DEG   S66 dB  S66 DEG
    .3000     -2.141298E+001  1.379283E+002 -7.391083E+000  3.634706E+000 -7.369631E+000  3.636428E+000 -7.396904E+000  3.635614E+000 -7.368004E+000  3.546187E+000 -7.448015E+000  3.394110E+000
              -7.410340E+000  3.723717E+000 -1.164497E+001  1.349699E+002 -1.900739E+001 -3.152504E+001 -4.266643E+001 -6.874090E+001 -4.360620E+001 -1.397327E+002 -4.295457E+001 -7.324333E+001
              -7.347819E+000  3.701096E+000 -1.894947E+001 -3.183481E+001 -1.076171E+001  1.358349E+002 -1.865429E+001 -3.149537E+001 -4.028006E+001 -7.942258E+001 -1.862397E+001 -3.149182E+001
              -7.409819E+000  3.647461E+000 -4.296824E+001 -6.940955E+001 -1.873573E+001 -3.130532E+001 -1.164393E+001  1.350816E+002 -1.915035E+001 -3.077005E+001 -4.030329E+001 -1.664737E+002
              -7.394109E+000  3.670161E+000 -4.357079E+001 -1.412985E+002 -4.091339E+001 -8.006432E+001 -1.917585E+001 -3.088683E+001 -1.136441E+001  1.355681E+002 -1.849709E+001 -3.022686E+001
              -7.497803E+000  3.472645E+000 -4.345887E+001 -7.617419E+001 -1.871985E+001 -3.141059E+001 -4.023950E+001 -1.670666E+002 -1.854945E+001 -3.043173E+001 -1.161265E+001  1.351470E+002
    .4000     -2.246567E+001  1.431543E+002 -7.372435E+000  2.887449E+000 -7.356900E+000  2.783678E+000 -7.363290E+000  2.826543E+000 -7.350553E+000  2.826364E+000 -7.431826E+000  2.766549E+000
              -7.368221E+000  2.911129E+000 -1.302857E+001  1.359104E+002 -2.020193E+001 -3.215212E+001 -4.486827E+001 -5.777796E+001 -4.868894E+001 -1.578609E+002 -4.538015E+001 -5.883205E+001
              -7.320289E+000  2.821825E+000 -2.017867E+001 -3.239508E+001 -1.215022E+001  1.361755E+002 -1.986736E+001 -3.249928E+001 -4.376632E+001 -6.926286E+001 -1.987448E+001 -3.243603E+001
              -7.370377E+000  2.821826E+000 -4.508642E+001 -5.707167E+001 -1.993552E+001 -3.227910E+001 -1.301900E+001  1.358903E+002 -2.032255E+001 -3.150779E+001 -4.325488E+001  1.733960E+002
              -7.351585E+000  2.815951E+000 -4.868171E+001 -1.577957E+002 -4.403626E+001 -6.997816E+001 -2.032009E+001 -3.149433E+001 -1.273508E+001  1.364946E+002 -1.968694E+001 -3.127027E+001
              -7.438128E+000  2.827171E+000 -4.581041E+001 -5.813927E+001 -1.992929E+001 -3.228764E+001 -4.341128E+001  1.728118E+002 -1.970642E+001 -3.138803E+001 -1.301522E+001  1.359606E+002
    .5000     -2.303750E+001  1.466701E+002 -7.353705E+000  2.372236E+000 -7.343275E+000  2.330452E+000 -7.352014E+000  2.347056E+000 -7.333038E+000  2.351361E+000 -7.402526E+000  2.396259E+000
              -7.347837E+000  2.406286E+000 -1.401789E+001  1.369010E+002 -2.107920E+001 -3.191786E+001 -4.640701E+001 -4.770209E+001 -5.253619E+001 -1.779097E+002 -4.702272E+001 -4.699434E+001
              -7.307760E+000  2.329750E+000 -2.105834E+001 -3.213828E+001 -1.314434E+001  1.368806E+002 -2.076409E+001 -3.236515E+001 -4.600312E+001 -6.033413E+001 -2.076944E+001 -3.226444E+001
              -7.352691E+000  2.359524E+000 -4.666957E+001 -4.749722E+001 -2.082751E+001 -3.217797E+001 -1.401104E+001  1.368384E+002 -2.116055E+001 -3.138149E+001 -4.532552E+001  1.567020E+002
              -7.335713E+000  2.344071E+000 -5.273961E+001  1.796525E+002 -4.657228E+001 -5.888008E+001 -2.115525E+001 -3.136382E+001 -1.370603E+001  1.373952E+002 -2.052458E+001 -3.137383E+001
              -7.405075E+000  2.427591E+000 -4.724798E+001 -4.487189E+001 -2.082125E+001 -3.208072E+001 -4.543883E+001  1.556617E+002 -2.055241E+001 -3.143681E+001 -1.399546E+001  1.369220E+002
    .6000     -2.347989E+001  1.487955E+002 -7.336231E+000  2.050125E+000 -7.330320E+000  2.008580E+000 -7.334576E+000  2.000245E+000 -7.318202E+000  1.999650E+000 -7.376212E+000  2.103717E+000
              -7.332352E+000  2.061876E+000 -1.478972E+001  1.376998E+002 -2.173454E+001 -3.162820E+001 -4.732275E+001 -4.149390E+001 -5.507845E+001  1.517321E+002 -4.763361E+001 -3.626886E+001
              -7.300953E+000  2.004964E+000 -2.170738E+001 -3.167102E+001 -1.393367E+001  1.374390E+002 -2.143859E+001 -3.211491E+001 -4.726075E+001 -4.848277E+001 -2.142831E+001 -3.195212E+001
              -7.339355E+000  2.008253E+000 -4.745434E+001 -4.009518E+001 -2.150453E+001 -3.198276E+001 -1.478092E+001  1.375951E+002 -2.180030E+001 -3.105346E+001 -4.656459E+001  1.430997E+002
              -7.325462E+000  1.985495E+000 -5.525131E+001  1.509159E+002 -4.770281E+001 -4.837915E+001 -2.180329E+001 -3.101940E+001 -1.447056E+001  1.381768E+002 -2.116761E+001 -3.122421E+001
              -7.383022E+000  2.129935E+000 -4.765177E+001 -3.557779E+001 -2.148665E+001 -3.183499E+001 -4.675628E+001  1.419059E+002 -2.120479E+001 -3.126214E+001 -1.476880E+001  1.377121E+002
    .7000     -2.378405E+001  1.504781E+002 -7.326269E+000  1.794397E+000 -7.321873E+000  1.754245E+000 -7.322143E+000  1.763335E+000 -7.308724E+000  1.752952E+000 -7.359040E+000  1.884206E+000
              -7.322556E+000  1.806108E+000 -1.542708E+001  1.383266E+002 -2.228223E+001 -3.139159E+001 -4.805260E+001 -3.515086E+001 -5.567581E+001  1.282716E+002 -4.810729E+001 -3.051478E+001
              -7.291261E+000  1.720217E+000 -2.226385E+001 -3.150531E+001 -1.458166E+001  1.379590E+002 -2.200107E+001 -3.197637E+001 -4.799796E+001 -4.185611E+001 -2.198154E+001 -3.182194E+001
              -7.327498E+000  1.762176E+000 -4.827209E+001 -3.385277E+001 -2.205270E+001 -3.182680E+001 -1.542461E+001  1.382168E+002 -2.232664E+001 -3.080960E+001 -4.730476E+001  1.315354E+002
              -7.314175E+000  1.744497E+000 -5.591303E+001  1.272003E+002 -4.831739E+001 -4.099646E+001 -2.232833E+001 -3.077175E+001 -1.510176E+001  1.387990E+002 -2.170614E+001 -3.103875E+001
              -7.362389E+000  1.913754E+000 -4.814505E+001 -2.953313E+001 -2.202905E+001 -3.164383E+001 -4.743941E+001  1.304699E+002 -2.173336E+001 -3.105635E+001 -1.540829E+001  1.383065E+002
    .8000     -2.411155E+001  1.518437E+002 -7.314327E+000  1.580052E+000 -7.309692E+000  1.543152E+000 -7.313366E+000  1.544191E+000 -7.298873E+000  1.544740E+000 -7.346263E+000  1.710047E+000
              -7.307002E+000  1.589290E+000 -1.597595E+001  1.386721E+002 -2.272882E+001 -3.096779E+001 -4.842194E+001 -2.735727E+001 -5.439376E+001  1.024144E+002 -4.831410E+001 -2.098501E+001
              -7.283177E+000  1.527979E+000 -2.271996E+001 -3.102938E+001 -1.513549E+001  1.382109E+002 -2.247085E+001 -3.153297E+001 -4.854543E+001 -3.195231E+001 -2.245096E+001 -3.140203E+001
              -7.314843E+000  1.549162E+000 -4.864891E+001 -2.696088E+001 -2.251255E+001 -3.149237E+001 -1.597222E+001  1.385835E+002 -2.276944E+001 -3.050187E+001 -4.761515E+001  1.206766E+002
              -7.301486E+000  1.525571E+000 -5.455361E+001  1.015462E+002 -4.876830E+001 -3.143536E+001 -2.277458E+001 -3.043157E+001 -1.564044E+001  1.391496E+002 -2.216221E+001 -3.094856E+001
              -7.341877E+000  1.716775E+000 -4.830131E+001 -2.118470E+001 -2.249798E+001 -3.126881E+001 -4.768647E+001  1.207650E+002 -2.218709E+001 -3.092398E+001 -1.595859E+001  1.387020E+002
    .9000     -2.434987E+001  1.528504E+002 -7.303835E+000  1.434721E+000 -7.297729E+000  1.407574E+000 -7.309589E+000  1.386945E+000 -7.295973E+000  1.375440E+000 -7.336742E+000  1.570818E+000
              -7.302628E+000  1.437894E+000 -1.646614E+001  1.391057E+002 -2.314721E+001 -3.068345E+001 -4.879132E+001 -2.160662E+001 -5.338475E+001  8.871053E+001 -4.839396E+001 -1.510582E+001
              -7.276226E+000  1.365093E+000 -2.309916E+001 -3.073372E+001 -1.562975E+001  1.385425E+002 -2.287808E+001 -3.132044E+001 -4.878006E+001 -2.504204E+001 -2.286180E+001 -3.105905E+001
              -7.308367E+000  1.401722E+000 -4.864848E+001 -2.093223E+001 -2.292641E+001 -3.119604E+001 -1.647031E+001  1.390194E+002 -2.317090E+001 -3.026286E+001 -4.773974E+001  1.125758E+002
              -7.293833E+000  1.389566E+000 -5.338589E+001  8.845782E+001 -4.889441E+001 -2.424163E+001 -2.317894E+001 -3.013632E+001 -1.612664E+001  1.395493E+002 -2.257246E+001 -3.071259E+001
              -7.332403E+000  1.602618E+000 -4.839427E+001 -1.430346E+001 -2.290869E+001 -3.094279E+001 -4.792071E+001  1.119840E+002 -2.258681E+001 -3.067828E+001 -1.645115E+001  1.391313E+002
   1.0000     -2.454028E+001  1.538409E+002 -7.298322E+000  1.270983E+000 -7.290329E+000  1.262371E+000 -7.296030E+000  1.258039E+000 -7.285961E+000  1.234583E+000 -7.321977E+000  1.435796E+000
              -7.295293E+000  1.282259E+000 -1.689799E+001  1.394407E+002 -2.351754E+001 -3.041876E+001 -4.895034E+001 -1.739168E+001 -5.268512E+001  8.186139E+001 -4.853958E+001 -1.128708E+001
              -7.268133E+000  1.206874E+000 -2.349066E+001 -3.055970E+001 -1.607829E+001  1.388710E+002 -2.327038E+001 -3.109673E+001 -4.895875E+001 -2.133990E+001 -2.324471E+001 -3.091767E+001
              -7.296709E+000  1.254099E+000 -4.904528E+001 -1.618102E+001 -2.331169E+001 -3.098226E+001 -1.690648E+001  1.394092E+002 -2.352392E+001 -2.991373E+001 -4.781483E+001  1.046871E+002
              -7.283207E+000  1.231484E+000 -5.259294E+001  8.215273E+001 -4.921737E+001 -1.921592E+001 -2.353214E+001 -2.984671E+001 -1.655770E+001  1.398994E+002 -2.292597E+001 -3.058101E+001
              -7.317238E+000  1.455014E+000 -4.834598E+001 -1.046015E+001 -2.328542E+001 -3.079019E+001 -4.784716E+001  1.047224E+002 -2.295581E+001 -3.042418E+001 -1.688759E+001  1.395222E+002
   2.0000     -2.577144E+001  1.592128E+002 -7.256318E+000  4.241081E-001 -7.250012E+000  4.252244E-001 -7.248705E+000  4.608329E-001 -7.237702E+000  4.495453E-001 -7.243649E+000  7.137749E-001
              -7.252420E+000  4.098268E-001 -1.987197E+001  1.437637E+002 -2.585847E+001 -2.632112E+001 -4.791006E+001  5.343541E+000 -4.791382E+001  4.847586E+001 -4.702116E+001  7.003201E+000
              -7.221443E+000  3.501482E-001 -2.583598E+001 -2.643681E+001 -1.907655E+001  1.422437E+002 -2.563269E+001 -2.718566E+001 -4.795876E+001  1.539231E+000 -2.558567E+001 -2.658665E+001
              -7.252741E+000  4.003294E-001 -4.799622E+001  4.657887E+000 -2.568690E+001 -2.704426E+001 -1.988198E+001  1.434812E+002 -2.589932E+001 -2.567043E+001 -4.665975E+001  6.688093E+001
              -7.241564E+000  3.848876E-001 -4.800323E+001  4.824747E+001 -4.792743E+001  1.653420E+000 -2.587824E+001 -2.566005E+001 -1.948544E+001  1.436776E+002 -2.533305E+001 -2.715498E+001
              -7.251005E+000  6.365451E-001 -4.682018E+001  6.828526E+000 -2.564495E+001 -2.678781E+001 -4.668892E+001  6.686149E+001 -2.534956E+001 -2.698052E+001 -1.984839E+001  1.436811E+002
   3.0000     -2.624068E+001  1.598811E+002 -7.236179E+000 -3.763797E-002 -7.230553E+000 -4.902751E-002 -7.237465E+000 -6.353577E-002 -7.226945E+000 -6.397132E-002 -7.226180E+000  1.643693E-001
              -7.236792E+000 -5.741299E-002 -2.138209E+001  1.484167E+002 -2.704878E+001 -2.148675E+001 -4.713928E+001  1.498797E+001 -4.653880E+001  4.066156E+001 -4.604611E+001  1.485823E+001
              -7.223144E+000 -1.212469E-001 -2.704767E+001 -2.154836E+001 -2.071663E+001  1.461736E+002 -2.689814E+001 -2.252232E+001 -4.739042E+001  1.062459E+001 -2.683094E+001 -2.220617E+001
              -7.241283E+000 -8.365335E-002 -4.727682E+001  1.477537E+001 -2.693729E+001 -2.249581E+001 -2.142607E+001  1.480589E+002 -2.702057E+001 -2.076861E+001 -4.575751E+001  5.358264E+001
              -7.229182E+000 -1.018203E-001 -4.649398E+001  4.100670E+001 -4.742335E+001  1.158953E+001 -2.702666E+001 -2.087948E+001 -2.102158E+001  1.479143E+002 -2.655349E+001 -2.261145E+001
              -7.228964E+000  1.445024E-001 -4.610987E+001  1.550701E+001 -2.686828E+001 -2.213061E+001 -4.592447E+001  5.352710E+001 -2.658186E+001 -2.274665E+001 -2.137914E+001  1.482058E+002
   4.0000     -2.647894E+001  1.599087E+002 -7.233189E+000 -3.866700E-001 -7.228561E+000 -4.025673E-001 -7.237048E+000 -4.266451E-001 -7.226282E+000 -4.487357E-001 -7.220233E+000 -2.200017E-001
              -7.232933E+000 -3.978374E-001 -2.226317E+001  1.523033E+002 -2.767294E+001 -1.739452E+001 -4.626901E+001  1.838885E+001 -4.572577E+001  3.571423E+001 -4.537473E+001  1.824452E+001
              -7.222264E+000 -4.777835E-001 -2.767179E+001 -1.749489E+001 -2.171242E+001  1.498338E+002 -2.755048E+001 -1.862676E+001 -4.667272E+001  1.494212E+001 -2.747712E+001 -1.829106E+001
              -7.240701E+000 -4.266760E-001 -4.641665E+001  1.824344E+001 -2.758737E+001 -1.851768E+001 -2.230955E+001  1.520208E+002 -2.761813E+001 -1.677020E+001 -4.528449E+001  4.729286E+001
              -7.231609E+000 -4.507602E-001 -4.561450E+001  3.546956E+001 -4.674878E+001  1.546861E+001 -2.763011E+001 -1.677777E+001 -2.191333E+001  1.516749E+002 -2.724557E+001 -1.888349E+001
              -7.223466E+000 -2.225583E-001 -4.532557E+001  1.826361E+001 -2.750403E+001 -1.814832E+001 -4.522278E+001  4.754313E+001 -2.728372E+001 -1.887078E+001 -2.225449E+001  1.521618E+002
   5.0000     -2.661784E+001  1.592017E+002 -7.225293E+000 -6.810895E-001 -7.221999E+000 -7.063183E-001 -7.232527E+000 -7.266201E-001 -7.223746E+000 -7.493747E-001 -7.209674E+000 -5.197270E-001
              -7.232282E+000 -7.082083E-001 -2.281351E+001  1.552438E+002 -2.804626E+001 -1.423505E+001 -4.597942E+001  2.066131E+001 -4.540743E+001  3.373528E+001 -4.501111E+001  2.053257E+001
              -7.220243E+000 -7.853423E-001 -2.804884E+001 -1.434900E+001 -2.234799E+001  1.526484E+002 -2.796829E+001 -1.551148E+001 -4.636128E+001  1.865102E+001 -2.786804E+001 -1.518337E+001
              -7.239841E+000 -7.573292E-001 -4.601696E+001  2.086136E+001 -2.799304E+001 -1.539761E+001 -2.286931E+001  1.548489E+002 -2.795191E+001 -1.360592E+001 -4.485285E+001  4.414317E+001
              -7.227640E+000 -7.738020E-001 -4.529380E+001  3.449708E+001 -4.641311E+001  1.926138E+001 -2.799236E+001 -1.368336E+001 -2.249160E+001  1.544109E+002 -2.766807E+001 -1.569996E+001
              -7.215224E+000 -5.482929E-001 -4.505944E+001  2.101703E+001 -2.791540E+001 -1.521136E+001 -4.482504E+001  4.415101E+001 -2.770400E+001 -1.576262E+001 -2.281757E+001  1.549301E+002
   6.0000     -2.671697E+001  1.581689E+002 -7.226886E+000 -9.402531E-001 -7.223544E+000 -9.606401E-001 -7.235468E+000 -1.014349E+000 -7.224321E+000 -1.005027E+000 -7.210913E+000 -7.979744E-001
              -7.226976E+000 -9.455211E-001 -2.316877E+001  1.576285E+002 -2.828811E+001 -1.166656E+001 -4.555310E+001  2.356111E+001 -4.495147E+001  3.261552E+001 -4.465234E+001  2.284930E+001
              -7.218654E+000 -1.046126E+000 -2.828415E+001 -1.170704E+001 -2.278431E+001  1.551728E+002 -2.821263E+001 -1.300057E+001 -4.591106E+001  2.088057E+001 -2.813622E+001 -1.267800E+001
              -7.234666E+000 -1.010196E+000 -4.549821E+001  2.327747E+001 -2.823482E+001 -1.287597E+001 -2.323905E+001  1.573791E+002 -2.819699E+001 -1.093594E+001 -4.454692E+001  4.240728E+001
              -7.226887E+000 -1.025935E+000 -4.498299E+001  3.221157E+001 -4.603956E+001  2.136408E+001 -2.821126E+001 -1.093952E+001 -2.288074E+001  1.568328E+002 -2.793890E+001 -1.303817E+001
              -7.212116E+000 -8.107544E-001 -4.458632E+001  2.290477E+001 -2.815417E+001 -1.253770E+001 -4.446788E+001  4.228030E+001 -2.797723E+001 -1.301408E+001 -2.318312E+001  1.574601E+002
   7.0000     -2.678323E+001  1.568934E+002 -7.227939E+000 -1.193676E+000 -7.223096E+000 -1.214514E+000 -7.230888E+000 -1.254494E+000 -7.222920E+000 -1.282176E+000 -7.208965E+000 -1.056241E+000
              -7.230403E+000 -1.198540E+000 -2.343946E+001  1.594475E+002 -2.844251E+001 -9.572034E+000 -4.523873E+001  2.498004E+001 -4.477124E+001  3.249141E+001 -4.432135E+001  2.446554E+001
              -7.224069E+000 -1.291440E+000 -2.843539E+001 -9.682889E+000 -2.310808E+001  1.570612E+002 -2.840409E+001 -1.085359E+001 -4.566603E+001  2.305628E+001 -2.830858E+001 -1.057696E+001
              -7.239150E+000 -1.263226E+000 -4.525306E+001  2.493863E+001 -2.841508E+001 -1.085584E+001 -2.352749E+001  1.591824E+002 -2.835199E+001 -8.787641E+000 -4.411908E+001  4.201810E+001
              -7.227263E+000 -1.285316E+000 -4.479843E+001  3.238411E+001 -4.567907E+001  2.346198E+001 -2.836876E+001 -8.828072E+000 -2.316412E+001  1.585645E+002 -2.812133E+001 -1.090114E+001
              -7.210927E+000 -1.066006E+000 -4.426559E+001  2.422897E+001 -2.831631E+001 -1.046653E+001 -4.412321E+001  4.169848E+001 -2.815535E+001 -1.087491E+001 -2.346238E+001  1.591845E+002
   8.0000     -2.682541E+001  1.554855E+002 -7.227372E+000 -1.428574E+000 -7.222928E+000 -1.470450E+000 -7.232409E+000 -1.523352E+000 -7.222835E+000 -1.534888E+000 -7.205140E+000 -1.314213E+000
              -7.229106E+000 -1.436594E+000 -2.361747E+001  1.609779E+002 -2.854994E+001 -7.667115E+000 -4.486735E+001  2.688395E+001 -4.445124E+001  3.306197E+001 -4.398351E+001  2.703306E+001
              -7.222185E+000 -1.554230E+000 -2.854520E+001 -7.747396E+000 -2.334167E+001  1.587104E+002 -2.851335E+001 -9.032928E+000 -4.534090E+001  2.556819E+001 -2.840627E+001 -8.698537E+000
              -7.237956E+000 -1.520569E+000 -4.486630E+001  2.678492E+001 -2.854316E+001 -8.961157E+000 -2.371525E+001  1.606582E+002 -2.844506E+001 -6.902566E+000 -4.383545E+001  4.185304E+001
              -7.228608E+000 -1.537348E+000 -4.445760E+001  3.281451E+001 -4.536550E+001  2.573019E+001 -2.846645E+001 -6.980622E+000 -2.336083E+001  1.600182E+002 -2.824747E+001 -8.992900E+000
              -7.209766E+000 -1.318577E+000 -4.394637E+001  2.655322E+001 -2.843504E+001 -8.680464E+000 -4.386430E+001  4.189495E+001 -2.828354E+001 -8.991664E+000 -2.364473E+001  1.607089E+002
   9.0000     -2.687497E+001  1.540768E+002 -7.226792E+000 -1.668039E+000 -7.223184E+000 -1.699293E+000 -7.234230E+000 -1.756156E+000 -7.224637E+000 -1.765420E+000 -7.204658E+000 -1.525148E+000
              -7.231148E+000 -1.669926E+000 -2.376670E+001  1.620776E+002 -2.860661E+001 -6.034927E+000 -4.448596E+001  2.859417E+001 -4.418091E+001  3.351331E+001 -4.357817E+001  2.841075E+001
              -7.224299E+000 -1.774103E+000 -2.862202E+001 -6.126740E+000 -2.353933E+001  1.600513E+002 -2.857801E+001 -7.352915E+000 -4.497986E+001  2.766796E+001 -2.848189E+001 -7.041730E+000
              -7.239836E+000 -1.729798E+000 -4.452342E+001  2.877271E+001 -2.860298E+001 -7.242927E+000 -2.386629E+001  1.618656E+002 -2.851290E+001 -5.297633E+000 -4.354186E+001  4.235887E+001
              -7.230094E+000 -1.752295E+000 -4.415579E+001  3.352371E+001 -4.500880E+001  2.741489E+001 -2.853700E+001 -5.296484E+000 -2.351966E+001  1.612019E+002 -2.834349E+001 -7.322861E+000
              -7.210433E+000 -1.525280E+000 -4.361105E+001  2.809233E+001 -2.850543E+001 -6.941504E+000 -4.362838E+001  4.224402E+001 -2.837091E+001 -7.275257E+000 -2.380121E+001  1.618760E+002
  10.0000     -2.688321E+001  1.526018E+002 -7.231844E+000 -1.884354E+000 -7.225011E+000 -1.944726E+000 -7.236710E+000 -1.960582E+000 -7.224368E+000 -1.995057E+000 -7.209563E+000 -1.737499E+000
