! S-parameter model data by Modelithics Inc. support@modelithics.com 813-866-6335 Tampa FL USA
! S-Parameter data specifications:
! Substrate: 20-mil Rogers, substrate thickness, H=0.508mm, Dielectric constant, Er=3.75
! PCB Mounting Pad Footprint: Pad width, PadW=0.75mm , Pad length, PadL=0.80mm , Pad gap, PadG (edge-to-edge)=0.70mm , Reference planes=2.20mm apart
! Created Thu Mar 08 16:43:33 2018
# hz S ma R 50
! 2 Port Network Data from SP1.SP block
! freq  magS11  angS11  magS21  angS21  magS12  angS12  magS22  angS22  
!     
         100000000       0.154980689        -81.3232492        0.987528225         8.53434218        0.987528225         8.53434218        0.154980689        -81.3232492
         150000000       0.102468964        -84.4315192        0.994266659         5.30932673        0.994266659         5.30932673        0.102468964        -84.4315192
         200000000      0.0753951025        -86.0371853        0.996617156         3.56117658        0.996617156         3.56117658       0.0753951025        -86.0371853
         250000000      0.0586933365        -87.0171013        0.997680487         2.41134218        0.997680487         2.41134218       0.0586933365        -87.0171013
         300000000      0.0472187699        -87.6649474        0.998235594         1.56223172        0.998235594         1.56223172       0.0472187699        -87.6649474
         350000000      0.0387432703        -88.1028493        0.998550988        0.885414111        0.998550988        0.885414111       0.0387432703        -88.1028493
         400000000      0.0321465793        -88.3858343        0.998738991        0.316433738        0.998738991        0.316433738       0.0321465793        -88.3858343
         450000000      0.0268042962        -88.5358375        0.998853206       -0.180599773        0.998853206       -0.180599773       0.0268042962        -88.5358375
         500000000      0.0223410498        -88.5534176        0.998921786       -0.627253844        0.998921786       -0.627253844       0.0223410498        -88.5534176
         550000000       0.018517757        -88.4196028        0.998960633        -1.03726893        0.998960633        -1.03726893        0.018517757        -88.4196028
         600000000      0.0151751214        -88.0900855        0.998979259        -1.41981398        0.998979259        -1.41981398       0.0151751214        -88.0900855
         650000000      0.0122032709        -87.4778325         0.99898362        -1.78124218         0.99898362        -1.78124218       0.0122032709        -87.4778325
         700000000      0.0095247035        -86.4089607        0.998977589         -2.1260955        0.998977589         -2.1260955       0.0095247035        -86.4089607
         750000000     0.00708497011        -84.4996866        0.998963762        -2.45770795        0.998963762        -2.45770795      0.00708497011        -84.4996866
         800000000     0.00485020885        -80.7346797        0.998943927        -2.77858292        0.998943927        -2.77858292      0.00485020885        -80.7346797
         850000000     0.00282347065        -71.4249732        0.998919339        -3.09063748        0.998919339        -3.09063748      0.00282347065        -71.4249732
         900000000     0.00124464167        -33.9302066        0.998890894        -3.39536541        0.998890894        -3.39536541      0.00124464167        -33.9302066
         950000000      0.0016673711         44.9791999        0.998859241        -3.69394879        0.998859241        -3.69394879       0.0016673711         44.9791999
             1e+09     0.00324866116          65.666376        0.998824853         -3.9873362        0.998824853         -3.9873362      0.00324866116          65.666376
          1.05e+09     0.00490130468         72.0628551        0.998788076        -4.27629864        0.998788076        -4.27629864      0.00490130468         72.0628551
           1.1e+09     0.00652181709         74.9680595        0.998749162        -4.56147033        0.998749162        -4.56147033      0.00652181709         74.9680595
          1.15e+09     0.00809817659         76.5454051         0.99870829         -4.8433789         0.99870829         -4.8433789      0.00809817659         76.5454051
           1.2e+09     0.00963149775         77.4827552        0.998665586        -5.12246816        0.998665586        -5.12246816      0.00963149775         77.4827552
          1.25e+09      0.0111256482         78.0641001        0.998621128        -5.39911558        0.998621128        -5.39911558       0.0111256482         78.0641001
           1.3e+09      0.0125849761         78.4274289        0.998574957        -5.67364584        0.998574957        -5.67364584       0.0125849761         78.4274289
          1.35e+09      0.0140136993         78.6476721         0.99852708         -5.9463416         0.99852708         -5.9463416       0.0140136993         78.6476721
           1.4e+09      0.0154157488         78.7689331        0.998477472        -6.21745225        0.998477472        -6.21745225       0.0154157488         78.7689331
          1.45e+09      0.0167947586          78.818798        0.998426078        -6.48720112        0.998426078        -6.48720112       0.0167947586          78.818798
           1.5e+09      0.0181541082         78.8153512        0.998372808        -6.75579178        0.998372808        -6.75579178       0.0181541082         78.8153512
          1.55e+09       0.019496985         78.7708888        0.998317532        -7.02341357        0.998317532        -7.02341357        0.019496985         78.7708888
           1.6e+09      0.0208264583         78.6940048        0.998260074        -7.29024703        0.998260074        -7.29024703       0.0208264583         78.6940048
          1.65e+09      0.0221455624          78.590819        0.998200202        -7.55646927        0.998200202        -7.55646927       0.0221455624          78.590819
           1.7e+09      0.0234573947         78.4657237        0.998137604        -7.82225999        0.998137604        -7.82225999       0.0234573947         78.4657237
          1.75e+09      0.0247652362         78.3218432        0.998071864        -8.08780861        0.998071864        -8.08780861       0.0247652362         78.3218432
           1.8e+09      0.0260727082         78.1613091        0.998002418        -8.35332327        0.998002418        -8.35332327       0.0260727082         78.1613091
          1.85e+09      0.0273839876         77.9854022        0.997928488        -8.61904322        0.997928488        -8.61904322       0.0273839876         77.9854022
           1.9e+09      0.0287041187         77.7945801        0.997848974        -8.88525648        0.997848974        -8.88525648       0.0287041187         77.7945801
          1.95e+09      0.0300394855         77.5883745        0.997762271        -9.15232653        0.997762271        -9.15232653       0.0300394855         77.5883745
             2e+09        0.03139856         77.3651047        0.997665958        -9.42073449        0.997665958        -9.42073449         0.03139856         77.3651047
          2.05e+09      0.0327931475         77.1212694        0.997556222        -9.69114894        0.997556222        -9.69114894       0.0327931475         77.1212694
           2.1e+09       0.034240567         76.8503046        0.997426735        -9.96454788        0.997426735        -9.96454788        0.034240567         76.8503046
          2.15e+09      0.0357677092         76.5399561        0.997266308        -10.2424442        0.997266308        -10.2424442       0.0357677092         76.5399561
           2.2e+09      0.0374191416         76.1662873        0.997053506        -10.5273327        0.997053506        -10.5273327       0.0374191416         76.1662873
          2.25e+09      0.0392747697         75.6784765        0.996742715        -10.8236502        0.996742715        -10.8236502       0.0392747697         75.6784765
           2.3e+09      0.0414925642         74.9541311        0.996222004        -11.1400377        0.996222004        -11.1400377       0.0414925642         74.9541311
          2.35e+09      0.0444243493         73.6380378        0.995154301        -11.4950598        0.995154301        -11.4950598       0.0444243493         73.6380378
           2.4e+09      0.0489243397           70.36204        0.992161432        -11.9275392        0.992161432        -11.9275392       0.0489243397           70.36204
          2.45e+09      0.0548276032         57.7290247        0.979838358        -12.2928432        0.979838358        -12.2928432       0.0548276032         57.7290247
           2.5e+09      0.0343078925         43.2386925        0.979520589        -11.1274154        0.979520589        -11.1274154       0.0343078925         43.2386925
          2.55e+09      0.0321074853         66.1858323         0.99256521        -11.5178396         0.99256521        -11.5178396       0.0321074853         66.1858323
           2.6e+09      0.0361969626         71.7974384        0.995317638        -11.9728107        0.995317638        -11.9728107       0.0361969626         71.7974384
          2.65e+09      0.0391172645         73.2251333        0.996103039        -12.3363255        0.996103039        -12.3363255       0.0391172645         73.2251333
           2.7e+09      0.0413455198         73.6460911        0.996371185         -12.656433        0.996371185         -12.656433       0.0413455198         73.6460911
          2.75e+09       0.043207741         73.7225735        0.996451751        -12.9545361        0.996451751        -12.9545361        0.043207741         73.7225735
           2.8e+09      0.0448609718         73.6504393        0.996447783        -13.2402702        0.996447783        -13.2402702       0.0448609718         73.6504393
          2.85e+09      0.0463861076         73.5028821        0.996398896        -13.5184789        0.996398896        -13.5184789       0.0463861076         73.5028821
           2.9e+09      0.0478284632         73.3118857         0.99632253         -13.791843         0.99632253         -13.791843       0.0478284632         73.3118857
          2.95e+09      0.0492153398         73.0930123        0.996227033        -14.0619657        0.996227033        -14.0619657       0.0492153398         73.0930123
             3e+09      0.0505642252         72.8543985        0.996116541        -14.3298686        0.996116541        -14.3298686       0.0505642252         72.8543985
          3.05e+09      0.0518869226         72.6004708        0.995993028        -14.5962381        0.995993028        -14.5962381       0.0518869226         72.6004708
           3.1e+09      0.0531917701         72.3336366        0.995857242        -14.8615568        0.995857242        -14.8615568       0.0531917701         72.3336366
          3.15e+09      0.0544849013         72.0551148         0.99570916        -15.1261779         0.99570916        -15.1261779       0.0544849013         72.0551148
           3.2e+09      0.0557709933         71.7653647        0.995548216        -15.3903687        0.995548216        -15.3903687       0.0557709933         71.7653647
          3.25e+09      0.0570537259         71.4643159        0.995373409        -15.6543379        0.995373409        -15.6543379       0.0570537259         71.4643159
           3.3e+09      0.0583360702          71.151492        0.995183354        -15.9182516        0.995183354        -15.9182516       0.0583360702          71.151492
          3.35e+09      0.0596204683         70.8260734        0.994976286        -16.1822436        0.994976286        -16.1822436       0.0596204683         70.8260734
           3.4e+09      0.0609089411         70.4869242         0.99475004        -16.4464216         0.99475004        -16.4464216       0.0609089411         70.4869242
          3.45e+09      0.0622031425         70.1325957        0.994502019        -16.7108699        0.994502019        -16.7108699       0.0622031425         70.1325957
           3.5e+09        0.06350437         69.7613137        0.994229138        -16.9756488        0.994229138        -16.9756488         0.06350437         69.7613137
          3.55e+09      0.0648135332         69.3709567         0.99392776        -17.2407926         0.99392776        -17.2407926       0.0648135332         69.3709567
           3.6e+09      0.0661310788         68.9590256        0.993593635        -17.5063037        0.993593635        -17.5063037       0.0661310788         68.9590256
          3.65e+09      0.0674568636         68.5226143        0.993221821         -17.772144        0.993221821         -17.772144       0.0674568636         68.5226143
           3.7e+09      0.0687899667         68.0583842        0.992806634        -18.0382223        0.992806634        -18.0382223       0.0687899667         68.0583842
          3.75e+09      0.0701284226         67.5625552        0.992341616        -18.3043765        0.992341616        -18.3043765       0.0701284226         67.5625552
           3.8e+09      0.0714688603         67.0309292        0.991819574        -18.5703504        0.991819574        -18.5703504       0.0714688603         67.0309292
          3.85e+09      0.0728060294         66.4589708        0.991232722        -18.8357628        0.991232722        -18.8357628       0.0728060294         66.4589708
           3.9e+09      0.0741322015          65.841983        0.990573011        -19.1000704        0.990573011        -19.1000704       0.0741322015          65.841983
          3.95e+09      0.0754364541         65.1754311        0.989832744        -19.3625247        0.989832744        -19.3625247       0.0754364541         65.1754311
             4e+09      0.0767038837         64.4554833        0.989005618        -19.6221267        0.989005618        -19.6221267       0.0767038837         64.4554833
          4.05e+09      0.0779148682         63.6798513        0.988088335        -19.8775909        0.988088335        -19.8775909       0.0779148682         63.6798513
           4.1e+09      0.0790446191         62.8490051          0.9870829        -20.1273352          0.9870829        -20.1273352       0.0790446191         62.8490051
          4.15e+09      0.0800634227         61.9677856        0.985999585        -20.3695258        0.985999585        -20.3695258       0.0800634227         61.9677856
           4.2e+09      0.0809381375         61.0473136         0.98486023         -20.602215         0.98486023         -20.602215       0.0809381375         61.0473136
          4.25e+09      0.0816355669         60.1068543        0.983701008        -20.8236055        0.983701008        -20.8236055       0.0816355669         60.1068543
           4.3e+09      0.0821280706         59.1749721        0.982573229        -21.0324497        0.982573229        -21.0324497       0.0821280706         59.1749721
          4.35e+09      0.0824010095         58.2890183        0.981540378        -21.2285269        0.981540378        -21.2285269       0.0824010095         58.2890183
           4.4e+09      0.0824603485         57.4920155        0.980670257        -21.4130563        0.980670257        -21.4130563       0.0824603485         57.4920155
          4.45e+09      0.0823375364         56.8266455        0.980022949        -21.5888429        0.980022949        -21.5888429       0.0823375364         56.8266455
           4.5e+09      0.0820886773         56.3273516        0.979637965        -21.7600005        0.979637965        -21.7600005       0.0820886773         56.3273516
          4.55e+09      0.0817868206         56.0129425        0.979525461        -21.9312668        0.979525461        -21.9312668       0.0817868206         56.0129425
           4.6e+09      0.0815093149         55.8825042        0.979665189         -22.107134        0.979665189         -22.107134       0.0815093149         55.8825042
          4.65e+09      0.0813246214         55.9162594         0.98001327        -22.2911162         0.98001327        -22.2911162       0.0813246214         55.9162594
           4.7e+09      0.0812829783         56.0808412        0.980513393        -22.4853771        0.980513393        -22.4853771       0.0812829783         56.0808412
          4.75e+09      0.0814130243         56.3366889        0.981107971        -22.6907478        0.981107971        -22.6907478       0.0814130243         56.3366889
           4.8e+09      0.0817237224         56.6449429        0.981746118          -22.90701        0.981746118          -22.90701       0.0817237224         56.6449429
          4.85e+09       0.082209325         56.9721587         0.98238759        -23.1332723         0.98238759        -23.1332723        0.082209325         56.9721587
           4.9e+09      0.0828550581         57.2924665        0.983003417        -23.3683159        0.983003417        -23.3683159       0.0828550581         57.2924665
          4.95e+09      0.0836420086         57.5877069        0.983574558         -23.610848        0.983574558         -23.610848       0.0836420086         57.5877069
             5e+09       0.084550623         57.8463817        0.984089748        -23.8596605        0.984089748        -23.8596605        0.084550623         57.8463817
          5.05e+09      0.0855628468         58.0621442        0.984543293        -24.1137102        0.984543293        -24.1137102       0.0855628468         58.0621442
           5.1e+09      0.0866632155         58.2322942        0.984933167        -24.3721479        0.984933167        -24.3721479       0.0866632155         58.2322942
          5.15e+09       0.087839252            58.3565        0.985259531        -24.6343178        0.985259531        -24.6343178        0.087839252            58.3565
           5.2e+09      0.0890814668         58.4358107        0.985523633        -24.8997424        0.985523633        -24.8997424       0.0890814668         58.4358107
          5.25e+09      0.0903831695         58.4719371        0.985727035        -25.1681027        0.985727035        -25.1681027       0.0903831695         58.4719371
           5.3e+09      0.0917402229         58.4667441        0.985871039        -25.4392193        0.985871039        -25.4392193       0.0917402229         58.4667441
          5.35e+09      0.0931508154         58.4218958        0.985956274        -25.7130369        0.985956274        -25.7130369       0.0931508154         58.4218958
           5.4e+09      0.0946152946         58.3385963        0.985982331        -25.9896132        0.985982331        -25.9896132       0.0946152946         58.3385963
          5.45e+09      0.0961360833         58.2173807         0.98594742        -26.2691135         0.98594742        -26.2691135       0.0961360833         58.2173807
           5.5e+09      0.0977176917          58.057916        0.985847963        -26.5518104        0.985847963        -26.5518104       0.0977176917          58.057916
          5.55e+09      0.0993668356         57.8587742        0.985678076        -26.8380882        0.985678076        -26.8380882       0.0993668356         57.8587742
           5.6e+09       0.101092672         57.6171367        0.985428837        -27.1284536        0.985428837        -27.1284536        0.101092672         57.6171367
          5.65e+09       0.102907166         57.3283789        0.985087238        -27.4235501        0.985087238        -27.4235501        0.102907166         57.3283789
           5.7e+09       0.104825593         56.9854618        0.984634619        -27.7241774        0.984634619        -27.7241774        0.104825593         56.9854618
          5.75e+09       0.106867183         56.5780195        0.984044307        -28.0313096        0.984044307        -28.0313096        0.106867183         56.5780195
