! S-parameter model data by Modelithics Inc. support@modelithics.com 813-866-6335 Tampa FL USA
! S-Parameter data specifications:
! Substrate: 20-mil Rogers, substrate thickness, H=0.508mm, Dielectric constant, Er=3.75
! PCB Mounting Pad Footprint: Pad width, PadW=0.75mm , Pad length, PadL=0.80mm , Pad gap, PadG (edge-to-edge)=0.70mm , Reference planes=2.20mm apart
! Created Thu Mar 08 16:42:27 2018
# hz S ma R 50
! 2 Port Network Data from SP1.SP block
! freq  magS11  angS11  magS21  angS21  magS12  angS12  magS22  angS22  
!     
         100000000       0.224812986        -77.2949052        0.974035573         12.6127791        0.974035573         12.6127791        0.224812986        -77.2949052
         150000000       0.150295423        -81.7574587        0.988196468         8.07535807        0.988196468         8.07535807        0.150295423        -81.7574587
         200000000       0.111442735        -84.1021954        0.993261707         5.64020837        0.993261707         5.64020837        0.111442735        -84.1021954
         250000000      0.0874496905        -85.5670458        0.995603361         4.06902741        0.995603361         4.06902741       0.0874496905        -85.5670458
         300000000      0.0710133645        -86.5776408        0.996858836         2.93470999        0.996858836         2.93470999       0.0710133645        -86.5776408
         350000000      0.0589328246        -87.3172622        0.997598504         2.05146368        0.997598504         2.05146368       0.0589328246        -87.3172622
         400000000      0.0495883132        -87.8758441        0.998062509         1.32564838        0.998062509         1.32564838       0.0495883132        -87.8758441
         450000000      0.0420734502        -88.3004019        0.998366015        0.704989462        0.998366015        0.704989462       0.0420734502        -88.3004019
         500000000      0.0358418408        -88.6149686        0.998569769        0.158020956        0.998569769        0.158020956       0.0358418408        -88.6149686
         550000000        0.03054465        -88.8289696        0.998708233       -0.335327633        0.998708233       -0.335327633         0.03054465        -88.8289696
         600000000      0.0259487945        -88.9401805        0.998802113       -0.788461277        0.998802113       -0.788461277       0.0259487945        -88.9401805
         650000000      0.0218926808        -88.9341337        0.998864437        -1.21067527        0.998864437        -1.21067527       0.0218926808        -88.9341337
         700000000      0.0182608527        -88.7796499        0.998903724        -1.60861954        0.998903724        -1.60861954       0.0182608527        -88.7796499
         750000000      0.0149688154        -88.4176712         0.99892572        -1.98717909         0.99892572        -1.98717909       0.0149688154        -88.4176712
         800000000      0.0119537137        -87.7348301        0.998934405        -2.35002523        0.998934405        -2.35002523       0.0119537137        -87.7348301
         850000000     0.00916878533         -86.494852        0.998932597        -2.69997288        0.998932597        -2.69997288      0.00916878533         -86.494852
         900000000     0.00658128175        -84.1262101        0.998922323        -3.03921928        0.998922323        -3.03921928      0.00658128175        -84.1262101
         950000000       0.004178308        -78.8458226        0.998905062        -3.36950776        0.998905062        -3.36950776        0.004178308        -78.8458226
             1e+09     0.00202822895         -61.663851        0.998881902         -3.6922428        0.998881902         -3.6922428      0.00202822895         -61.663851
          1.05e+09     0.00120880023         20.1162362        0.998853637        -4.00857287        0.998853637        -4.00857287      0.00120880023         20.1162362
           1.1e+09     0.00284672674         62.2783683        0.998820846         -4.3194514        0.998820846         -4.3194514      0.00284672674         62.2783683
          1.15e+09        0.00479204         71.3886021        0.998783927        -4.62568281        0.998783927        -4.62568281         0.00479204         71.3886021
           1.2e+09     0.00672380627         74.9143972        0.998743134        -4.92795842        0.998743134        -4.92795842      0.00672380627         74.9143972
          1.25e+09     0.00861439763         76.6728082        0.998698582        -5.22688566        0.998698582        -5.22688566      0.00861439763         76.6728082
           1.3e+09      0.0104636853         77.6573784        0.998650251        -5.52301342        0.998650251        -5.52301342       0.0104636853         77.6573784
          1.35e+09      0.0122770856         78.2354832        0.998597962        -5.81685595        0.998597962        -5.81685595       0.0122770856         78.2354832
           1.4e+09       0.014061815         78.5732431        0.998541336        -6.10891837        0.998541336        -6.10891837        0.014061815         78.5732431
          1.45e+09      0.0158262588         78.7559719        0.998479711        -6.39972759        0.998479711        -6.39972759       0.0158262588         78.7559719
           1.5e+09      0.0175803082         78.8311155         0.99841199        -6.68987528         0.99841199        -6.68987528       0.0175803082         78.8311155
          1.55e+09      0.0193363681         78.8259049        0.998336342        -6.98008492        0.998336342        -6.98008492       0.0193363681         78.8259049
           1.6e+09       0.021111322         78.7549868        0.998249618        -7.27132754        0.998249618        -7.27132754        0.021111322         78.7549868
          1.65e+09      0.0229303832         78.6229179        0.998146071        -7.56504147        0.998146071        -7.56504147       0.0229303832         78.6229179
           1.7e+09      0.0248352599         78.4221436        0.998014286         -7.8635927        0.998014286         -7.8635927       0.0248352599         78.4221436
          1.75e+09      0.0269035416         78.1224395        0.997828716        -8.17136029        0.997828716        -8.17136029       0.0269035416         78.1224395
           1.8e+09      0.0293024731         77.6328914        0.997521309        -8.49771778        0.997521309        -8.49771778       0.0293024731         77.6328914
          1.85e+09      0.0324755065         76.6359596        0.996853638        -8.86716339        0.996853638        -8.86716339       0.0324755065         76.6359596
           1.9e+09      0.0380490142         73.4465879        0.994447908        -9.36475122        0.994447908        -9.36475122       0.0380490142         73.4465879
          1.95e+09      0.0498811153         46.3637258        0.971261343        -9.76440195        0.971261343        -9.76440195       0.0498811153         46.3637258
             2e+09      0.0194210928         59.4335642        0.992494836        -8.61222395        0.992494836        -8.61222395       0.0194210928         59.4335642
          2.05e+09       0.025914048         74.4927826        0.996757675         -9.2456587        0.996757675         -9.2456587        0.025914048         74.4927826
           2.1e+09      0.0295795711         76.2875251        0.997382805        -9.64981164        0.997382805        -9.64981164       0.0295795711         76.2875251
          2.15e+09      0.0321345682         76.6562467        0.997515399        -9.98681783        0.997515399        -9.98681783       0.0321345682         76.6562467
           2.2e+09      0.0342328716         76.6728038         0.99751556        -10.2969675         0.99751556        -10.2969675       0.0342328716         76.6728038
          2.25e+09      0.0361059041         76.5595181        0.997464163        -10.5939812        0.997464163        -10.5939812       0.0361059041         76.5595181
           2.3e+09      0.0378552471         76.3844014        0.997386205        -10.8838063        0.997386205        -10.8838063       0.0378552471         76.3844014
          2.35e+09      0.0395334398          76.173179        0.997290546        -11.1694984        0.997290546        -11.1694984       0.0395334398          76.173179
           2.4e+09      0.0411716188         75.9365847        0.997180018          -11.45286        0.997180018          -11.45286       0.0411716188         75.9365847
          2.45e+09      0.0427907604         75.6788334        0.997054543        -11.7350992        0.997054543        -11.7350992       0.0427907604         75.6788334
           2.5e+09      0.0444069709         75.4006182        0.996912115        -12.0171385        0.996912115        -12.0171385       0.0444069709         75.4006182
          2.55e+09      0.0460343744         75.1001309        0.996748912        -12.2997811        0.996748912        -12.2997811       0.0460343744         75.1001309
           2.6e+09      0.0476870065         74.7731545        0.996558876        -12.5838187        0.996558876        -12.5838187       0.0476870065         74.7731545
          2.65e+09      0.0493803735            74.4125        0.996332742        -12.8701171        0.996332742        -12.8701171       0.0493803735            74.4125
           2.7e+09      0.0511330566         74.0066941        0.996056232        -13.1597014        0.996056232        -13.1597014       0.0511330566         74.0066941
          2.75e+09      0.0529686425         73.5374907        0.995706785        -13.4538518        0.995706785        -13.4538518       0.0529686425         73.5374907
           2.8e+09      0.0549181717         72.9752402        0.995247461         -13.754211        0.995247461         -13.754211       0.0549181717         72.9752402
          2.85e+09      0.0570229596         72.2700449        0.994615129        -14.0628702        0.994615129        -14.0628702       0.0570229596         72.2700449
           2.9e+09      0.0593361044          71.334221         0.99369662        -14.3822602         0.99369662        -14.3822602       0.0593361044          71.334221
          2.95e+09      0.0619144611         70.0064253        0.992279333        -14.7141445        0.992279333        -14.7141445       0.0619144611         70.0064253
             3e+09       0.064765684         67.9792614        0.989953271        -15.0549167        0.989953271        -15.0549167        0.064765684         67.9792614
          3.05e+09      0.0676080248          64.682076        0.985982935        -15.3767342        0.985982935        -15.3767342       0.0676080248          64.682076
           3.1e+09       0.069018744         59.3495386        0.979691101        -15.5689598        0.979691101        -15.5689598        0.069018744         59.3495386
          3.15e+09      0.0653826225         52.7777629        0.973740024        -15.4175139        0.973740024        -15.4175139       0.0653826225         52.7777629
           3.2e+09      0.0566669574         50.8290616        0.975409403        -15.0921986        0.975409403        -15.0921986       0.0566669574         50.8290616
          3.25e+09      0.0513111243         55.8941057        0.981975714        -15.0967062        0.981975714        -15.0967062       0.0513111243         55.8941057
           3.3e+09      0.0510908265         61.5784386         0.98707691        -15.3581899         0.98707691        -15.3581899       0.0510908265         61.5784386
          3.35e+09      0.0529209606         65.1424309        0.990064581        -15.6897205        0.990064581        -15.6897205       0.0529209606         65.1424309
           3.4e+09      0.0551809489         67.1095714        0.991761833        -16.0249475        0.991761833        -16.0249475       0.0551809489         67.1095714
          3.45e+09       0.057401578         68.1763782        0.992748166        -16.3495329        0.992748166        -16.3495329        0.057401578         68.1763782
           3.5e+09      0.0594869783         68.7437538        0.993332128        -16.6627506        0.993332128        -16.6627506       0.0594869783         68.7437538
          3.55e+09      0.0614400088         69.0212567        0.993674905        -16.9666542        0.993674905        -16.9666542       0.0614400088         69.0212567
           3.6e+09      0.0632848641         69.1202243        0.993863341        -17.2634491        0.993863341        -17.2634491       0.0632848641         69.1202243
          3.65e+09       0.065046734          69.102025        0.993945771        -17.5549654        0.993945771        -17.5549654        0.065046734          69.102025
           3.7e+09      0.0667472706         69.0014971        0.993949424        -17.8426389        0.993949424        -17.8426389       0.0667472706         69.0014971
          3.75e+09      0.0684043049         68.8384939        0.993889052        -18.1275934        0.993889052        -18.1275934       0.0684043049         68.8384939
           3.8e+09      0.0700325328         68.6236971        0.993771214        -18.4107217        0.993771214        -18.4107217       0.0700325328         68.6236971
          3.85e+09        0.07164422         68.3615189        0.993596266        -18.6927452        0.993596266        -18.6927452         0.07164422         68.3615189
           3.9e+09       0.073249616         68.0513886        0.993358936        -18.9742433        0.993358936        -18.9742433        0.073249616         68.0513886
          3.95e+09      0.0748568649         67.6880083        0.993047868        -19.2556469        0.993047868        -19.2556469       0.0748568649         67.6880083
             4e+09      0.0764710476         67.2608231        0.992644249        -19.5371723        0.992644249        -19.5371723       0.0764710476         67.2608231
          4.05e+09      0.0780915952         66.7528342        0.992119587        -19.8186514        0.992119587        -19.8186514       0.0780915952         66.7528342
           4.1e+09      0.0797065221         66.1390517         0.99143314        -20.0991597         0.99143314        -20.0991597       0.0797065221         66.1390517
          4.15e+09      0.0812806183         65.3857446        0.990531126        -20.3762721        0.990531126        -20.3762721       0.0812806183         65.3857446
           4.2e+09      0.0827335294         64.4543153        0.989354783        -20.6447246        0.989354783        -20.6447246       0.0827335294         64.4543153
          4.25e+09      0.0839070906          63.320035        0.987875527        -20.8945602        0.987875527        -20.8945602       0.0839070906          63.320035
           4.3e+09       0.084545587         62.0245349        0.986187219          -21.11054        0.986187219          -21.11054        0.084545587         62.0245349
          4.35e+09        0.08437872         60.7658403         0.98464375        -21.2786484         0.98464375        -21.2786484         0.08437872         60.7658403
           4.4e+09       0.083411982         59.9244698        0.983837037         -21.404486        0.983837037         -21.404486        0.083411982         59.9244698
          4.45e+09      0.0821810867         59.8238842        0.984147414        -21.5243216        0.984147414        -21.5243216       0.0821810867         59.8238842
           4.5e+09       0.081412139         60.3880031        0.985320938        -21.6786504        0.985320938        -21.6786504        0.081412139         60.3880031
          4.55e+09       0.081423679         61.2313288        0.986772834        -21.8798956        0.986772834        -21.8798956        0.081423679         61.2313288
           4.6e+09      0.0820929535         62.0258162        0.988091976        -22.1171212        0.988091976        -22.1171212       0.0820929535         62.0258162
          4.65e+09       0.083167941         62.6368116        0.989137702        -22.3750632        0.989137702        -22.3750632        0.083167941         62.6368116
           4.7e+09      0.0844502045           63.05392         0.98991629        -22.6428326         0.98991629        -22.6428326       0.0844502045           63.05392
          4.75e+09      0.0858213327         63.3106285        0.990479146        -22.9142918        0.990479146        -22.9142918       0.0858213327         63.3106285
           4.8e+09      0.0872190954         63.4457106         0.99087934        -23.1863666         0.99087934        -23.1863666       0.0872190954         63.4457106
          4.85e+09      0.0886132792         63.4913049         0.99115955        -23.4576494         0.99115955        -23.4576494       0.0886132792         63.4913049
           4.9e+09      0.0899904282         63.4714056        0.991351363        -23.7275739        0.991351363        -23.7275739       0.0899904282         63.4714056
          4.95e+09      0.0913454896          63.403279        0.991477498        -23.9959799        0.991477498        -23.9959799       0.0913454896          63.403279
             5e+09      0.0926774826         63.2992361        0.991554206        -24.2628941        0.991554206        -24.2628941       0.0926774826         63.2992361
          5.05e+09      0.0939873027          63.168084        0.991593165        -24.5284221        0.991593165        -24.5284221       0.0939873027          63.168084
           5.1e+09      0.0952766246         63.0161825        0.991602855        -24.7926965        0.991602855        -24.7926965       0.0952766246         63.0161825
          5.15e+09       0.096547362         62.8481792        0.991589504        -25.0558521        0.991589504        -25.0558521        0.096547362         62.8481792
           5.2e+09      0.0978014108         62.6675149        0.991557749        -25.3180154        0.991557749        -25.3180154       0.0978014108         62.6675149
          5.25e+09      0.0990405355         62.4767705        0.991511085        -25.5793002        0.991511085        -25.5793002       0.0990405355         62.4767705
           5.3e+09       0.100266328          62.277907        0.991452179        -25.8398073        0.991452179        -25.8398073        0.100266328          62.277907
          5.35e+09       0.101480198         62.0724325        0.991383093        -26.0996246        0.991383093        -26.0996246        0.101480198         62.0724325
           5.4e+09       0.102683388         61.8615204        0.991305437        -26.3588287        0.991305437        -26.3588287        0.102683388         61.8615204
          5.45e+09       0.103876982         61.6460938        0.991220481        -26.6174863        0.991220481        -26.6174863        0.103876982         61.6460938
           5.5e+09       0.105061931          61.426886         0.99112924        -26.8756549         0.99112924        -26.8756549        0.105061931          61.426886
          5.55e+09       0.106239065         61.2044853        0.991032529        -27.1333852        0.991032529        -27.1333852        0.106239065         61.2044853
           5.6e+09       0.107409111          60.979368        0.990931009        -27.3907209        0.990931009        -27.3907209        0.107409111          60.979368
          5.65e+09       0.108572706         60.7519229        0.990825222        -27.6477006        0.990825222        -27.6477006        0.108572706         60.7519229
           5.7e+09       0.109730413         60.5224696        0.990715615        -27.9043581        0.990715615        -27.9043581        0.109730413         60.5224696
          5.75e+09       0.110882727          60.291273        0.990602558        -28.1607232        0.990602558        -28.1607232        0.110882727          60.291273
