!Murata Part Number: LQW18ANR18J0Z
!These Parameters are Measured in Series Mode Connection
!       o--[Z]--o
!Port1              Port2
!       o-------o
!
!Freq. Start=50[MHz] Stop=20[GHz], 401[Steps]
# Hz S RI R 50
!Freq.(Hz) S11(Real) S11(Imag) S21(Real) S21(Imag) S12(Real) S12(Imag) S22(Real) S22(Imag)
5.0E7 0.25446209915073603 0.41197432841587384 0.745537900849264 -0.41197432841587384 0.745537900849264 -0.41197432841587384 0.25446209915073603 0.41197432841587384
5.0754570186123446E7 0.25973378222703397 0.4150997673701939 0.7402662177729661 -0.4150997673701939 0.7402662177729661 -0.4150997673701939 0.25973378222703397 0.4150997673701939
5.152052789556263E7 0.26508352169467586 0.4181818391188745 0.7349164783053241 -0.4181818391188745 0.7349164783053241 -0.4181818391188745 0.26508352169467586 0.4181818391188745
5.229804498202928E7 0.2705107470700604 0.42121829180912784 0.7294892529299396 -0.42121829180912784 0.7294892529299396 -0.42121829180912784 0.2705107470700604 0.42121829180912784
5.308729589274893E7 0.27601480778661514 0.4242068671971062 0.7239851922133848 -0.4242068671971062 0.7239851922133848 -0.4242068671971062 0.27601480778661514 0.4242068671971062
5.388845770760058E7 0.2815949719767886 0.4271453038162429 0.7184050280232113 -0.4271453038162428 0.7184050280232113 -0.4271453038162428 0.2815949719767886 0.4271453038162429
5.470171017884717E7 0.2872504253902637 0.43003134024944384 0.7127495746097363 -0.43003134024944384 0.7127495746097363 -0.43003134024944384 0.2872504253902637 0.43003134024944384
5.5527235771465644E7 0.2929802704562871 0.4328627184991939 0.707019729543713 -0.43286271849919394 0.707019729543713 -0.43286271849919394 0.2929802704562871 0.4328627184991939
5.6365219704085544E7 0.29878352549775716 0.4356371874490412 0.7012164745022429 -0.4356371874490412 0.7012164745022429 -0.4356371874490412 0.29878352549775716 0.4356371874490412
5.721584999054556E7 0.30465912410443724 0.43835250640933987 0.6953408758955627 -0.4383525064093398 0.6953408758955627 -0.4383525064093398 0.30465912410443724 0.43835250640933987
5.807931748207712E7 0.31060591467234083 0.44100644873955885 0.6893940853276592 -0.4410064487395588 0.6893940853276592 -0.4410064487395588 0.31060591467234083 0.44100644873955885
5.8955815910124585E7 0.3166226601159521 0.44359680553889014 0.6833773398840478 -0.44359680553889014 0.6833773398840478 -0.44359680553889014 0.3166226601159521 0.44359680553889014
5.984554192981184E7 0.322708037759539 0.4461213893963512 0.6772919622404611 -0.44612138939635126 0.6772919622404611 -0.44612138939635126 0.322708037759539 0.4461213893963512
6.074869516406457E7 0.3288606394133493 0.4485780381910373 0.6711393605866506 -0.4485780381910373 0.6711393605866506 -0.4485780381910373 0.3288606394133493 0.4485780381910373
6.166547824839868E7 0.3350789716399795 0.4509646189326812 0.6649210283600204 -0.4509646189326812 0.6649210283600204 -0.4509646189326812 0.3350789716399795 0.4509646189326812
6.2596096876384385E7 0.34136145621564773 0.4532790316321869 0.6586385437843523 -0.4532790316321869 0.6586385437843523 -0.4532790316321869 0.34136145621564773 0.4532790316321869
6.354075984579668E7 0.3477064307905271 0.4555192131913669 0.6522935692094729 -0.4555192131913669 0.6522935692094729 -0.4555192131913669 0.3477064307905271 0.4555192131913669
6.449967910546205E7 0.35411214975164723 0.4576831413006838 0.6458878502483527 -0.4576831413006838 0.6458878502483527 -0.4576831413006838 0.35411214975164723 0.4576831413006838
6.547306980281226E7 0.3605767852912099 0.4597688383334273 0.6394232147087903 -0.4597688383334273 0.6394232147087903 -0.4597688383334273 0.3605767852912099 0.4597688383334273
6.646115033215589E7 0.3670984286824589 0.4617743752244155 0.632901571317541 -0.46177437522441556 0.632901571317541 -0.46177437522441556 0.3670984286824589 0.4617743752244155
6.746414238367817E7 0.3736750917644956 0.4636978753210216 0.6263249082355044 -0.46369787532102164 0.6263249082355044 -0.46369787532102164 0.3736750917644956 0.4636978753210216
6.848227099318038E7 0.3803047086366615 0.4655375181940746 0.6196952913633385 -0.4655375181940745 0.6196952913633385 -0.4655375181940745 0.3803047086366615 0.4655375181940746
6.951576459256999E7 0.3869851375623065 0.4672915433959997 0.6130148624376935 -0.46729154339599976 0.6130148624376935 -0.46729154339599976 0.3869851375623065 0.4672915433959997
7.056485506111258E7 0.39371416308093365 0.4689582541534165 0.6062858369190662 -0.46895825415341647 0.6062858369190662 -0.46895825415341647 0.39371416308093365 0.4689582541534165
7.162977777745734E7 0.4004894983268619 0.470536020981337 0.5995105016731381 -0.47053602098133696 0.5995105016731381 -0.47053602098133696 0.4004894983268619 0.470536020981337
7.271077167244768E7 0.4073087875516798 0.47202328520608094 0.5926912124483202 -0.47202328520608083 0.5926912124483202 -0.47202328520608083 0.4073087875516798 0.47202328520608094
7.380807928272885E7 0.4141696088468859 0.47341856238407065 0.585830391153114 -0.47341856238407065 0.585830391153114 -0.47341856238407065 0.4141696088468859 0.47341856238407065
7.492194680516452E7 0.42106947706222353 0.47472044560376997 0.5789305229377767 -0.47472044560376997 0.5789305229377767 -0.47472044560376997 0.42106947706222353 0.47472044560376997
7.60526241520746E7 0.4280058469143196 0.47592760865820044 0.5719941530856805 -0.4759276086582004 0.5719941530856805 -0.4759276086582004 0.4280058469143196 0.47592760865820044
7.720036500730675E7 0.4349761162793612 0.47703880907571905 0.5650238837206389 -0.47703880907571905 0.5650238837206389 -0.47703880907571905 0.4349761162793612 0.47703880907571905
7.836542688315398E7 0.4419776296626401 0.47805289099703324 0.55802237033736 -0.47805289099703324 0.55802237033736 -0.47805289099703324 0.4419776296626401 0.47805289099703324
7.954807117813127E7 0.44900768183694645 0.47896878788681735 0.5509923181630534 -0.47896878788681735 0.5509923181630534 -0.47896878788681735 0.44900768183694645 0.47896878788681735
8.074856323562416E7 0.4560635216409263 0.47978552506873606 0.5439364783590735 -0.47978552506873606 0.5439364783590735 -0.47978552506873606 0.4560635216409263 0.47978552506873606
8.196717240342227E7 0.46314235592769354 0.4805022220731917 0.5368576440723064 -0.4805022220731917 0.5368576440723064 -0.4805022220731917 0.46314235592769354 0.4805022220731917
8.320417209415154E7 0.4702413536532019 0.48111809478769885 0.529758646346798 -0.48111809478769885 0.529758646346798 -0.48111809478769885 0.4702413536532019 0.48111809478769885
8.445983984661816E7 0.4773576500930978 0.48163245740043065 0.5226423499069022 -0.48163245740043065 0.5226423499069022 -0.48163245740043065 0.4773576500930978 0.48163245740043065
8.573445738807854E7 0.48448835117608413 0.4820447241281952 0.5155116488239159 -0.4820447241281952 0.5155116488239159 -0.4820447241281952 0.48448835117608413 0.4820447241281952
8.702831069744885E7 0.4916305379211329 0.48235441072087076 0.5083694620788671 -0.4823544107208709 0.5083694620788671 -0.4823544107208709 0.4916305379211329 0.48235441072087076
8.834169006946853E7 0.4987812709652836 0.4825611357351544 0.5012187290347164 -0.4825611357351543 0.5012187290347164 -0.4825611357351543 0.4987812709652836 0.4825611357351544
8.96748901798321E7 0.5059375951681971 0.48266462157136336 0.49406240483180297 -0.48266462157136336 0.49406240483180297 -0.48266462157136336 0.5059375951681971 0.48266462157136336
9.1028210151304E7 0.5130965442791485 0.48266469526795774 0.48690345572085153 -0.48266469526795774 0.48690345572085153 -0.48266469526795774 0.5130965442791485 0.48266469526795774
9.240195362083109E7 0.5202551456517158 0.4825612890494258 0.479744854348284 -0.4825612890494258 0.479744854348284 -0.4825612890494258 0.5202551456517158 0.4825612890494258
9.379642880766791E7 0.5274104249910748 0.48235444062418775 0.4725895750089251 -0.48235444062418775 0.4725895750089251 -0.48235444062418775 0.5274104249910748 0.48235444062418775
9.521194858253023E7 0.5345594111185297 0.4820442932302161 0.46544058888147016 -0.4820442932302161 0.46544058888147016 -0.4820442932302161 0.5345594111185297 0.4820442932302161
9.664883053779216E7 0.5416991407377343 0.481631095427143 0.4583008592622656 -0.48163109542714305 0.4583008592622656 -0.48163109542714305 0.5416991407377343 0.481631095427143
9.810739705874248E7 0.5488266631869282 0.481115200634712 0.45117333681307187 -0.481115200634712 0.45117333681307187 -0.481115200634712 0.5488266631869282 0.481115200634712
9.958797539591652E7 0.555939045161509 0.4804970664185289 0.4440609548384909 -0.4804970664185288 0.4440609548384909 -0.4804970664185288 0.555939045161509 0.4804970664185289
1.0109089773851961E8 0.5630333753913161 0.4797772535251769 0.43696662460868396 -0.4797772535251769 0.43696662460868396 -0.4797772535251769 0.5630333753913161 0.4797772535251769
1.0261650128895843E8 0.5701067692571542 0.47895642466985366 0.42989323074284574 -0.4789564246698538 0.42989323074284574 -0.4789564246698538 0.5701067692571542 0.47895642466985366
1.0416512833849736E8 0.5771563733313275 0.47803534308078127 0.42284362666867237 -0.47803534308078127 0.42284362666867237 -0.47803534308078127 0.5771563733313275 0.47803534308078127
1.0573712634405641E8 0.5841793698272767 0.4770148708057058 0.4158206301727233 -0.47701487080570576 0.4158206301727233 -0.47701487080570576 0.5841793698272767 0.4770148708057058
1.0733284800616828E8 0.5911729809438259 0.47589596678684865 0.4088270190561741 -0.47589596678684865 0.4088270190561741 -0.47589596678684865 0.5911729809438259 0.47589596678684865
1.0895265134811176E8 0.5981344730900356 0.4746796847116748 0.40186552690996435 -0.4746796847116748 0.40186552690996435 -0.4746796847116748 0.5981344730900356 0.4746796847116748
1.1059689979623953E8 0.6050611609772348 0.47336717064781064 0.39493883902276516 -0.47336717064781064 0.39493883902276516 -0.47336717064781064 0.6050611609772348 0.47336717064781064
1.1226596226151802E8 0.6119504115654444 0.47195966047136156 0.3880495884345556 -0.4719596604713616 0.3880495884345556 -0.4719596604713616 0.6119504115654444 0.47195966047136156
1.1396021322229806E8 0.6187996478521353 0.4704584770987355 0.38120035214786463 -0.4704584770987355 0.38120035214786463 -0.4704584770987355 0.6187996478521353 0.4704584770987355
1.1568003280833441E8 0.6256063524920349 0.46886502753288206 0.3743936475079651 -0.46886502753288206 0.3743936475079651 -0.46886502753288206 0.6256063524920349 0.46886502753288206
1.1742580688607343E8 0.6323680712375442 0.4671807997355863 0.36763192876245565 -0.4671807997355863 0.36763192876245565 -0.4671807997355863 0.6323680712375442 0.4671807997355863
1.1919792714522783E8 0.6390824161902293 0.4654073593381151 0.36091758380977074 -0.4654073593381151 0.36091758380977074 -0.4654073593381151 0.6390824161902293 0.4654073593381151
1.2099679118665792E8 0.6457470688547802 0.46354634620309704 0.3542529311452199 -0.46354634620309704 0.3542529311452199 -0.46354634620309704 0.6457470688547802 0.46354634620309704
1.2282280261157903E8 0.6523597829878263 0.46159947085102043 0.3476402170121737 -0.46159947085102043 0.3476402170121737 -0.46159947085102043 0.6523597829878263 0.46159947085102043
1.2467637111211549E8 0.6589183872350001 0.4595685107651521 0.341081612765 -0.4595685107651521 0.341081612765 -0.4595685107651521 0.6589183872350001 0.4595685107651521
1.265579125632208E8 0.6654207875506805 0.4574553065890157 0.3345792124493195 -0.4574553065890156 0.3345792124493195 -0.4574553065890156 0.6654207875506805 0.4574553065890157
1.284678491159853E8 0.6718649693959015 0.4552617582308165 0.32813503060409854 -0.45526175823081644 0.32813503060409854 -0.45526175823081644 0.6718649693959015 0.4552617582308165
1.3040660929235186E8 0.6782489997109722 0.4529898208893609 0.3217510002890279 -0.4529898208893609 0.3217510002890279 -0.4529898208893609 0.6782489997109722 0.4529898208893609
1.3237462808126101E8 0.6845710286604106 0.45064150101609696 0.31542897133958925 -0.4506415010160969 0.31542897133958925 -0.4506415010160969 0.6845710286604106 0.45064150101609696
1.3437234703624701E8 0.6908292911488569 0.44821885222788865 0.30917070885114295 -0.44821885222788865 0.30917070885114295 -0.44821885222788865 0.6908292911488569 0.44821885222788865
1.364002143745067E8 0.6970221081076576 0.4457239711850497 0.3029778918923424 -0.44572397118504964 0.3029778918923424 -0.44572397118504964 0.6970221081076576 0.4457239711850497
1.3845868507746372E8 0.7031478875528389 0.44315899344898435 0.2968521124471612 -0.44315899344898435 0.2968521124471612 -0.44315899344898435 0.7031478875528389 0.44315899344898435
1.405482209928499E8 0.7092051254161728 0.4405260893335349 0.29079487458382725 -0.4405260893335349 0.29079487458382725 -0.4405260893335349 0.7092051254161728 0.4405260893335349
1.426692909383278E8 0.715192406151988 0.437827459763809 0.28480759384801196 -0.437827459763809 0.28480759384801196 -0.437827459763809 0.715192406151988 0.437827459763809
1.4482237080667645E8 0.721108403123293 0.43506533215586823 0.27889159687670695 -0.43506533215586823 0.27889159687670695 -0.43506533215586823 0.721108403123293 0.43506533215586823
1.4700794367256513E8 0.7269518787716427 0.43224195633020135 0.27304812122835714 -0.43224195633020135 0.27304812122835714 -0.43224195633020135 0.7269518787716427 0.43224195633020135
1.492264999009378E8 0.7327216845759938 0.4293596004713857 0.26727831542400615 -0.4293596004713857 0.26727831542400615 -0.4293596004713857 0.7327216845759938 0.4293596004713857
1.5147853725703382E8 0.7384167608065558 0.42642054714577204 0.26158323919344423 -0.42642054714577204 0.26158323919344423 -0.42642054714577204 0.7384167608065558 0.42642054714577204
1.5376456101806876E8 0.7440361360803363 0.4234270893884116 0.25596386391966375 -0.4234270893884115 0.25596386391966375 -0.4234270893884115 0.7440361360803363 0.4234270893884116
1.5608508408660066E8 0.749578926725732 0.4203815268697777 0.25042107327426816 -0.4203815268697777 0.25042107327426816 -0.4203815268697777 0.749578926725732 0.4203815268697777
1.5844062710560706E8 0.7550443359640745 0.4172861621521502 0.24495566403592553 -0.41728616215215014 0.24495566403592553 -0.41728616215215014 0.7550443359640745 0.4172861621521502
1.6083171857529896E8 0.7604316529165684 0.4141432970447929 0.23956834708343164 -0.4141432970447928 0.23956834708343164 -0.4141432970447928 0.7604316529165684 0.4141432970447929
1.632588949716973E8 0.7657402514454864 0.41095522906632154 0.23425974855451367 -0.41095522906632154 0.23425974855451367 -0.41095522906632154 0.7657402514454864 0.41095522906632154
1.6572270086699936E8 0.7709695888388737 0.4077242480218868 0.22903041116112624 -0.4077242480218868 0.22903041116112624 -0.4077242480218868 0.7709695888388737 0.4077242480218868
1.6822368905176118E8 0.7761192043483229 0.4044526327020254 0.22388079565167712 -0.4044526327020254 0.22388079565167712 -0.4044526327020254 0.7761192043483229 0.4044526327020254
1.7076242065892437E8 0.7811887175896226 0.40114264770925534 0.21881128241037734 -0.40114264770925523 0.21881128241037734 -0.40114264770925523 0.7811887175896226 0.40114264770925534
1.7333946528971428E8 0.7861778268162731 0.39779654041771023 0.21382217318372687 -0.39779654041771023 0.21382217318372687 -0.39779654041771023 0.7861778268162731 0.39779654041771023
1.7595540114143828E8 0.7910863070759697 0.39441653807034016 0.2089136929240302 -0.39441653807034005 0.2089136929240302 -0.39441653807034005 0.7910863070759697 0.39441653807034016
1.786108151372127E8 0.7959140082602301 0.3910048450174369 0.20408599173977 -0.3910048450174369 0.20408599173977 -0.3910048450174369 0.7959140082602301 0.3910048450174369
1.8130630305764765E8 0.8006608530573304 0.3875636400995068 0.19933914694266952 -0.3875636400995068 0.19933914694266952 -0.3875636400995068 0.8006608530573304 0.3875636400995068
1.840424696745189E8 0.8053268348186724 0.3840950741767816 0.19467316518132766 -0.3840950741767815 0.19467316518132766 -0.3840950741767815 0.8053268348186724 0.3840950741767816
1.8681992888645732E8 0.8099120153485962 0.38060126780695447 0.19008798465140367 -0.3806012678069545 0.19008798465140367 -0.3806012678069545 0.8099120153485962 0.38060126780695447
1.8963930385668582E8 0.814416522627509 0.37708430907206125 0.18558347737249106 -0.3770843090720612 0.18558347737249106 -0.3770843090720612 0.814416522627509 0.37708430907206125
1.92501227152835E8 0.8188405484779953 0.37354625155477156 0.18115945152200466 -0.37354625155477156 0.18115945152200466 -0.37354625155477156 0.8188405484779953 0.37354625155477156
1.9540634088886917E8 0.8231843461833559 0.3699891124637503 0.176815653816644 -0.3699891124637503 0.176815653816644 -0.3699891124637503 0.8231843461833559 0.3699891124637503
1.983552968691535E8 0.8274482280677348 0.36641487090716574 0.17255177193226529 -0.36641487090716574 0.17255177193226529 -0.36641487090716574 0.8274482280677348 0.36641487090716574
2.0134875673469606E8 0.8316325630467021 0.3628254663128825 0.16836743695329784 -0.36282546631288254 0.16836743695329784 -0.36282546631288254 0.8316325630467021 0.3628254663128825
2.0438739211159652E8 0.8357377741568301 0.35922279699337023 0.1642622258431698 -0.3592227969933703 0.1642622258431698 -0.3592227969933703 0.8357377741568301 0.35922279699337023
2.074718847617352E8 0.839764336072432 0.3556087188528959 0.1602356639275682 -0.3556087188528959 0.1602356639275682 -0.3556087188528959 0.839764336072432 0.3556087188528959
2.106029267357361E8 0.843712772617268 0.3519850442341387 0.15628722738273218 -0.3519850442341387 0.15628722738273218 -0.3519850442341387 0.843712772617268 0.3519850442341387
2.1378122052823865E8 0.8475836542786293 0.3483535409009788 0.15241634572137075 -0.3483535409009788 0.15241634572137075 -0.3483535409009788 0.8475836542786293 0.3483535409009788
2.1700747923551247E8 0.8513775957307902 0.34471593115386673 0.14862240426920986 -0.3447159311538667 0.14862240426920986 -0.3447159311538667 0.8513775957307902 0.34471593115386673
2.2028242671545094E8 0.8550952533744192 0.34107389107386016 0.1449047466255808 -0.3410738910738601 0.1449047466255808 -0.3410738910738601 0.8550952533744192 0.34107389107386016
2.23606797749979E8 0.8587373228980998 0.33742904989116135 0.14126267710190024 -0.33742904989116135 0.14126267710190024 -0.33742904989116135 0.8587373228980998 0.33742904989116135
2.2698133820991236E8 0.8623045368676965 0.3337829894737321 0.1376954631323034 -0.3337829894737321 0.1376954631323034 -0.3337829894737321 0.8623045368676965 0.3337829894737321
2.3040680522230446E8 0.8657976623488634 0.33013724393138305 0.13420233765113648 -0.33013724393138305 0.13420233765113648 -0.33013724393138305 0.8657976623488634 0.33013724393138305
2.338839673403185E8 0.8692174985675691 0.32649329933056004 0.1307825014324309 -0.32649329933056004 0.1307825014324309 -0.32649329933056004 0.8692174985675691 0.32649329933056004
2.37413604715664E8 0.872564874613091 0.32285259351492446 0.1274351253869091 -0.32285259351492446 0.1274351253869091 -0.32285259351492446 0.872564874613091 0.32285259351492446
2.4099650927363476E8 0.875840647187513 0.31921651602672313 0.12415935281248709 -0.3192165160267231 0.12415935281248709 -0.3192165160267231 0.875840647187513 0.31921651602672313
2.446334848907889E8 0.8790456984053525 0.3155864081238771 0.12095430159464747 -0.3155864081238771 0.12095430159464747 -0.3155864081238771 0.8790456984053525 0.3155864081238771
2.4832534757531032E8 0.8821809336465475 0.31196356288767674 0.11781906635345245 -0.3119635628876767 0.11781906635345245 -0.3119635628876767 0.8821809336465475 0.31196356288767674
2.5207292565009177E8 0.8852472794656449 0.30834922541595605 0.11475272053435503 -0.30834922541595605 0.11475272053435503 -0.30834922541595605 0.8852472794656449 0.30834922541595605
2.558770599385812E8 0.8882456815596634 0.30474459309663243 0.11175431844033658 -0.3047445930966325 0.11175431844033658 -0.3047445930966325 0.8882456815596634 0.30474459309663243
2.5973860395343277E8 0.891177102796742 0.3011508159565254 0.10882289720325795 -0.3011508159565254 0.10882289720325795 -0.3011508159565254 0.891177102796742 0.3011508159565254
