!Murata Part Number: LQW18ANR13G00
!These Parameters are Measured in Series Mode Connection
!       o--[Z]--o
!Port1              Port2
!       o-------o
!
!Freq. Start=50[MHz] Stop=20[GHz], 401[Steps]
# Hz S RI R 50
!Freq.(Hz) S11(Real) S11(Imag) S21(Real) S21(Imag) S12(Real) S12(Imag) S22(Real) S22(Imag)
5.0E7 0.16813993993191403 0.3531756010439493 0.831860060068086 -0.35317560104394935 0.831860060068086 -0.35317560104394935 0.16813993993191403 0.3531756010439493
5.0754570186123446E7 0.17201559932847266 0.3567364012107691 0.8279844006715273 -0.3567364012107691 0.8279844006715273 -0.3567364012107691 0.17201559932847266 0.3567364012107691
5.152052789556263E7 0.17596802599823505 0.36029044406348293 0.8240319740017649 -0.3602904440634829 0.8240319740017649 -0.3602904440634829 0.17596802599823505 0.36029044406348293
5.229804498202928E7 0.17999778360599136 0.3638360088843151 0.8200022163940086 -0.3638360088843151 0.8200022163940086 -0.3638360088843151 0.17999778360599136 0.3638360088843151
5.308729589274893E7 0.18410539301165896 0.36737133268545796 0.815894606988341 -0.36737133268545796 0.815894606988341 -0.36737133268545796 0.18410539301165896 0.36737133268545796
5.388845770760058E7 0.18829133003049328 0.37089461101968857 0.8117086699695065 -0.37089461101968857 0.8117086699695065 -0.37089461101968857 0.18829133003049328 0.37089461101968857
5.470171017884717E7 0.19255602318342024 0.3744039989035402 0.8074439768165798 -0.37440399890354026 0.8074439768165798 -0.37440399890354026 0.19255602318342024 0.3744039989035402
5.5527235771465644E7 0.19689985144277203 0.3778976118561102 0.803100148557228 -0.3778976118561102 0.803100148557228 -0.3778976118561102 0.19689985144277203 0.3778976118561102
5.6365219704085544E7 0.2013231419790113 0.38137352705637717 0.7986768580209888 -0.38137352705637717 0.7986768580209888 -0.38137352705637717 0.2013231419790113 0.38137352705637717
5.721584999054556E7 0.205826167914335 0.3848297846216737 0.794173832085665 -0.3848297846216737 0.794173832085665 -0.3848297846216737 0.205826167914335 0.3848297846216737
5.807931748207712E7 0.2104091460893403 0.38826438900969873 0.7895908539106596 -0.38826438900969873 0.7895908539106596 -0.38826438900969873 0.2104091460893403 0.38826438900969873
5.8955815910124585E7 0.21507223484923513 0.3916753105461794 0.7849277651507648 -0.3916753105461794 0.7849277651507648 -0.3916753105461794 0.21507223484923513 0.3916753105461794
5.984554192981184E7 0.21981553185635408 0.39506048707998337 0.780184468143646 -0.39506048707998337 0.780184468143646 -0.39506048707998337 0.21981553185635408 0.39506048707998337
6.074869516406457E7 0.22463907193601174 0.39841782576714363 0.775360928063988 -0.39841782576714363 0.775360928063988 -0.39841782576714363 0.22463907193601174 0.39841782576714363
6.166547824839868E7 0.22954282496299788 0.40174520498490823 0.7704571750370022 -0.40174520498490823 0.7704571750370022 -0.40174520498490823 0.22954282496299788 0.40174520498490823
6.2596096876384385E7 0.23452669379625113 0.40504047637653096 0.765473306203749 -0.40504047637653096 0.765473306203749 -0.40504047637653096 0.23452669379625113 0.40504047637653096
6.354075984579668E7 0.239590512269495 0.40830146702711206 0.7604094877305051 -0.40830146702711206 0.7604094877305051 -0.40830146702711206 0.239590512269495 0.40830146702711206
6.449967910546205E7 0.24473404324581652 0.41152598177035127 0.7552659567541834 -0.41152598177035127 0.7552659567541834 -0.41152598177035127 0.24473404324581652 0.41152598177035127
6.547306980281226E7 0.24995697674436834 0.4147118056256133 0.7500430232556315 -0.4147118056256133 0.7500430232556315 -0.4147118056256133 0.24995697674436834 0.4147118056256133
6.646115033215589E7 0.2552589281475401 0.4178567063642097 0.74474107185246 -0.41785670636420974 0.74474107185246 -0.41785670636420974 0.2552589281475401 0.4178567063642097
6.746414238367817E7 0.2606394364970786 0.4209584372032836 0.7393605635029215 -0.4209584372032836 0.7393605635029215 -0.4209584372032836 0.2606394364970786 0.4209584372032836
6.848227099318038E7 0.2660979628877549 0.4240147396251394 0.7339020371122452 -0.4240147396251394 0.7339020371122452 -0.4240147396251394 0.2660979628877549 0.4240147396251394
6.951576459256999E7 0.2716338889672448 0.4270233463192944 0.7283661110327553 -0.4270233463192944 0.7283661110327553 -0.4270233463192944 0.2716338889672448 0.4270233463192944
7.056485506111258E7 0.2772465155509388 0.42998198424394113 0.7227534844490612 -0.42998198424394113 0.7227534844490612 -0.42998198424394113 0.2772465155509388 0.42998198424394113
7.162977777745734E7 0.2829350613603983 0.4328883778029008 0.7170649386396016 -0.4328883778029008 0.7170649386396016 -0.4328883778029008 0.2829350613603983 0.4328883778029008
7.271077167244768E7 0.2886986618941357 0.4357402521335224 0.7113013381058643 -0.4357402521335224 0.7113013381058643 -0.4357402521335224 0.2886986618941357 0.4357402521335224
7.380807928272885E7 0.2945363684393219 0.43853533650034404 0.705463631560678 -0.43853533650034404 0.705463631560678 -0.43853533650034404 0.2945363684393219 0.43853533650034404
7.492194680516452E7 0.30044714723288835 0.4412713677886753 0.6995528527671114 -0.4412713677886753 0.6995528527671114 -0.4412713677886753 0.30044714723288835 0.4412713677886753
7.60526241520746E7 0.30642987878032346 0.4439460940916017 0.6935701212196765 -0.4439460940916017 0.6935701212196765 -0.4439460940916017 0.30642987878032346 0.4439460940916017
7.720036500730675E7 0.3124833573402267 0.44655727838323955 0.6875166426597733 -0.44655727838323955 0.6875166426597733 -0.44655727838323955 0.3124833573402267 0.44655727838323955
7.836542688315398E7 0.318606290582411 0.44910270227040666 0.681393709417589 -0.4491027022704066 0.681393709417589 -0.4491027022704066 0.318606290582411 0.44910270227040666
7.954807117813127E7 0.32479729942699787 0.4515801698141957 0.675202700573002 -0.4515801698141957 0.675202700573002 -0.4515801698141957 0.32479729942699787 0.4515801698141957
8.074856323562416E7 0.3310549180715641 0.4539875114122919 0.6689450819284359 -0.4539875114122919 0.6689450819284359 -0.4539875114122919 0.3310549180715641 0.4539875114122919
8.196717240342227E7 0.3373775942129373 0.4563225877322115 0.6626224057870627 -0.45632258773221157 0.6626224057870627 -0.45632258773221157 0.3373775942129373 0.4563225877322115
8.320417209415154E7 0.3437636894697369 0.4585832936850237 0.6562363105302631 -0.4585832936850237 0.6562363105302631 -0.4585832936850237 0.3437636894697369 0.4585832936850237
8.445983984661816E7 0.35021148001117364 0.46076756242849304 0.6497885199888263 -0.46076756242849304 0.6497885199888263 -0.46076756242849304 0.35021148001117364 0.46076756242849304
8.573445738807854E7 0.35671915739700055 0.4628733693880157 0.6432808426029994 -0.46287336938801565 0.6432808426029994 -0.46287336938801565 0.35671915739700055 0.4628733693880157
8.702831069744885E7 0.36328482963281306 0.4648987362831643 0.636715170367187 -0.4648987362831643 0.636715170367187 -0.4648987362831643 0.36328482963281306 0.4648987362831643
8.834169006946853E7 0.36990652244415156 0.46684173514715854 0.6300934775558483 -0.46684173514715854 0.6300934775558483 -0.46684173514715854 0.36990652244415156 0.46684173514715854
8.96748901798321E7 0.37658218077206085 0.46870049232611627 0.6234178192279392 -0.4687004923261163 0.6234178192279392 -0.4687004923261163 0.37658218077206085 0.46870049232611627
9.1028210151304E7 0.3833096704919026 0.4704731924445343 0.6166903295080975 -0.4704731924445343 0.6166903295080975 -0.4704731924445343 0.3833096704919026 0.4704731924445343
9.240195362083109E7 0.39008678035631356 0.47215808232309736 0.6099132196436865 -0.47215808232309736 0.6099132196436865 -0.47215808232309736 0.39008678035631356 0.47215808232309736
9.379642880766791E7 0.3969112241622636 0.4737534748346347 0.6030887758377365 -0.47375347483463476 0.6030887758377365 -0.47375347483463476 0.3969112241622636 0.4737534748346347
9.521194858253023E7 0.40378064314115925 0.47525775268382064 0.5962193568588408 -0.4752577526838206 0.5962193568588408 -0.4752577526838206 0.40378064314115925 0.47525775268382064
9.664883053779216E7 0.41069260856993944 0.47666937209608334 0.5893073914300606 -0.47666937209608323 0.5893073914300606 -0.47666937209608323 0.41069260856993944 0.47666937209608334
9.810739705874248E7 0.4176446246000295 0.4779868664011203 0.5823553753999705 -0.4779868664011203 0.5823553753999705 -0.4779868664011203 0.4176446246000295 0.4779868664011203
9.958797539591652E7 0.4246341312999676 0.47920884949644504 0.5753658687000325 -0.47920884949644504 0.5753658687000325 -0.47920884949644504 0.4246341312999676 0.47920884949644504
1.0109089773851961E8 0.43165850790641097 0.48033401917649626 0.568341492093589 -0.48033401917649626 0.568341492093589 -0.48033401917649626 0.43165850790641097 0.48033401917649626
1.0261650128895843E8 0.4387150762771377 0.48136116031304743 0.5612849237228623 -0.48136116031304743 0.5612849237228623 -0.48136116031304743 0.4387150762771377 0.48136116031304743
1.0416512833849736E8 0.4458011045385577 0.4822891478729428 0.5541988954614422 -0.4822891478729428 0.5541988954614422 -0.4822891478729428 0.4458011045385577 0.4822891478729428
1.0573712634405641E8 0.4529138109191645 0.48311694975957586 0.5470861890808354 -0.483116949759576 0.5470861890808354 -0.483116949759576 0.4529138109191645 0.48311694975957586
1.0733284800616828E8 0.46005036775927893 0.48384362946500914 0.5399496322407209 -0.48384362946500914 0.5399496322407209 -0.48384362946500914 0.46005036775927893 0.48384362946500914
1.0895265134811176E8 0.4672079056864032 0.48446834852020754 0.532792094313597 -0.48446834852020754 0.532792094313597 -0.48446834852020754 0.4672079056864032 0.48446834852020754
1.1059689979623953E8 0.47438351794448824 0.4849903687315301 0.5256164820555118 -0.4849903687315301 0.5256164820555118 -0.4849903687315301 0.47438351794448824 0.4849903687315301
1.1226596226151802E8 0.4815742648644658 0.48540905419238267 0.5184257351355341 -0.4854090541923826 0.5184257351355341 -0.4854090541923826 0.4815742648644658 0.48540905419238267
1.1396021322229806E8 0.4887771784624758 0.4857238730597793 0.5112228215375243 -0.4857238730597794 0.5112228215375243 -0.4857238730597794 0.4887771784624758 0.4857238730597793
1.1568003280833441E8 0.49598926715139513 0.485934399086494 0.5040107328486049 -0.485934399086494 0.5040107328486049 -0.485934399086494 0.49598926715139513 0.485934399086494
1.1742580688607343E8 0.5032075205504856 0.48604031290048666 0.49679247944951455 -0.48604031290048677 0.49679247944951455 -0.48604031290048677 0.5032075205504856 0.48604031290048666
1.1919792714522783E8 0.5104289143772974 0.4860414030243705 0.48957108562270274 -0.4860414030243705 0.48957108562270274 -0.4860414030243705 0.5104289143772974 0.4860414030243705
1.2099679118665792E8 0.5176504154053576 0.48593756662882637 0.48234958459464244 -0.48593756662882637 0.48234958459464244 -0.48593756662882637 0.5176504154053576 0.48593756662882637
1.2282280261157903E8 0.5248689864706599 0.4857288100150731 0.47513101352933995 -0.48572881001507323 0.47513101352933995 -0.48572881001507323 0.5248689864706599 0.4857288100150731
1.2467637111211549E8 0.5320815915095638 0.48541524882274634 0.4679184084904361 -0.48541524882274634 0.4679184084904361 -0.48541524882274634 0.5320815915095638 0.48541524882274634
1.265579125632208E8 0.5392852006104005 0.48499710796082546 0.4607147993895995 -0.48499710796082535 0.4607147993895995 -0.48499710796082535 0.5392852006104005 0.48499710796082546
1.284678491159853E8 0.5464767950608866 0.4844747212605633 0.45352320493911347 -0.4844747212605633 0.45352320493911347 -0.4844747212605633 0.5464767950608866 0.4844747212605633
1.3040660929235186E8 0.5536533723733567 0.4838485308507032 0.4463466276266433 -0.4838485308507032 0.4463466276266433 -0.4838485308507032 0.5536533723733567 0.4838485308507032
1.3237462808126101E8 0.5608119512698532 0.48311908625660893 0.4391880487301468 -0.4831190862566089 0.4391880487301468 -0.4831190862566089 0.5608119512698532 0.48311908625660893
1.3437234703624701E8 0.5679495766092449 0.48228704322627225 0.432050423390755 -0.4822870432262722 0.432050423390755 -0.4822870432262722 0.5679495766092449 0.48228704322627225
1.364002143745067E8 0.5750633242388039 0.4813531622874831 0.42493667576119604 -0.4813531622874831 0.42493667576119604 -0.4813531622874831 0.5750633242388039 0.4813531622874831
1.3845868507746372E8 0.5821503057530285 0.48031830704174877 0.41784969424697155 -0.4803183070417488 0.41784969424697155 -0.4803183070417488 0.5821503057530285 0.48031830704174877
1.405482209928499E8 0.5892076731429735 0.4791834422018101 0.41079232685702644 -0.4791834422018101 0.41079232685702644 -0.4791834422018101 0.5892076731429735 0.4791834422018101
1.426692909383278E8 0.5962326233199237 0.4779496313808251 0.4037673766800764 -0.4779496313808251 0.4037673766800764 -0.4779496313808251 0.5962326233199237 0.4779496313808251
1.4482237080667645E8 0.6032224024979258 0.4766180346424495 0.3967775975020743 -0.4766180346424495 0.3967775975020743 -0.4766180346424495 0.6032224024979258 0.4766180346424495
1.4700794367256513E8 0.6101743104204634 0.47518990582214776 0.38982568957953645 -0.47518990582214776 0.38982568957953645 -0.47518990582214776 0.6101743104204634 0.47518990582214776
1.492264999009378E8 0.6170857044174152 0.4736665896310942 0.38291429558258483 -0.4736665896310942 0.38291429558258483 -0.4736665896310942 0.6170857044174152 0.4736665896310942
1.5147853725703382E8 0.6239540032793811 0.4720495185549704 0.37604599672061895 -0.47204951855497035 0.37604599672061895 -0.47204951855497035 0.6239540032793811 0.4720495185549704
1.5376456101806876E8 0.6307766909374639 0.470340209560829 0.36922330906253614 -0.470340209560829 0.36922330906253614 -0.470340209560829 0.6307766909374639 0.470340209560829
1.5608508408660066E8 0.6375513199376706 0.4685402606259585 0.36244868006232933 -0.4685402606259585 0.36244868006232933 -0.4685402606259585 0.6375513199376706 0.4685402606259585
1.5844062710560706E8 0.6442755147002197 0.46665134710335904 0.35572448529978024 -0.46665134710335904 0.35572448529978024 -0.46665134710335904 0.6442755147002197 0.46665134710335904
1.6083171857529896E8 0.6509469745552183 0.464675217939003 0.3490530254447818 -0.464675217939003 0.3490530254447818 -0.464675217939003 0.6509469745552183 0.464675217939003
1.632588949716973E8 0.6575634765473628 0.4626136917565278 0.3424365234526372 -0.46261369175652783 0.3424365234526372 -0.46261369175652783 0.6575634765473628 0.4626136917565278
1.6572270086699936E8 0.6641228780035587 0.46046865282536087 0.33587712199644126 -0.46046865282536087 0.33587712199644126 -0.46046865282536087 0.6641228780035587 0.46046865282536087
1.6822368905176118E8 0.6706231188585784 0.45824204692853726 0.32937688114142166 -0.4582420469285373 0.32937688114142166 -0.4582420469285373 0.6706231188585784 0.45824204692853726
1.7076242065892437E8 0.6770622237351376 0.4559358771466135 0.3229377762648625 -0.4559358771466135 0.3229377762648625 -0.4559358771466135 0.6770622237351376 0.4559358771466135
1.7333946528971428E8 0.6834383037759901 0.45355219957413007 0.31656169622400976 -0.45355219957413 0.31656169622400976 -0.45355219957413 0.6834383037759901 0.45355219957413007
1.7595540114143828E8 0.6897495582268768 0.4510931189850136 0.31025044177312316 -0.4510931189850136 0.31025044177312316 -0.4510931189850136 0.6897495582268768 0.4510931189850136
1.786108151372127E8 0.6959942757703484 0.4485607844631567 0.30400572422965155 -0.4485607844631568 0.30400572422965155 -0.4485607844631568 0.6959942757703484 0.4485607844631567
1.8130630305764765E8 0.7021708356116579 0.445957385014159 0.297829164388342 -0.44595738501415894 0.297829164388342 -0.44595738501415894 0.7021708356116579 0.445957385014159
1.840424696745189E8 0.7082777083190276 0.4432851451738761 0.29172229168097247 -0.44328514517387607 0.29172229168097247 -0.44328514517387607 0.7082777083190276 0.4432851451738761
1.8681992888645732E8 0.7143134564216782 0.4405463206289993 0.2856865435783218 -0.4405463206289993 0.2856865435783218 -0.4405463206289993 0.7143134564216782 0.4405463206289993
1.8963930385668582E8 0.720276734770026 0.43774319386438226 0.27972326522997415 -0.4377431938643823 0.27972326522997415 -0.4377431938643823 0.720276734770026 0.43774319386438226
1.92501227152835E8 0.726166290663406 0.4348780698512636 0.2738337093365941 -0.4348780698512636 0.2738337093365941 -0.4348780698512636 0.726166290663406 0.4348780698512636
1.9540634088886917E8 0.7319809637515817 0.43195327178989357 0.2680190362484183 -0.43195327178989357 0.2680190362484183 -0.43195327178989357 0.7319809637515817 0.43195327178989357
1.983552968691535E8 0.737719685717117 0.4289711369193804 0.26228031428288306 -0.4289711369193804 0.26228031428288306 -0.4289711369193804 0.737719685717117 0.4289711369193804
2.0134875673469606E8 0.7433814797464424 0.42593401240682643 0.2566185202535576 -0.42593401240682643 0.2566185202535576 -0.42593401240682643 0.7433814797464424 0.42593401240682643
2.0438739211159652E8 0.748965459798123 0.4228442513270426 0.25103454020187693 -0.4228442513270426 0.25103454020187693 -0.4228442513270426 0.748965459798123 0.4228442513270426
2.074718847617352E8 0.7544708296774307 0.4197042087433051 0.24552917032256932 -0.4197042087433051 0.24552917032256932 -0.4197042087433051 0.7544708296774307 0.4197042087433051
2.106029267357361E8 0.7598968819268487 0.41651623789877723 0.24010311807315124 -0.4165162378987773 0.24010311807315124 -0.4165162378987773 0.7598968819268487 0.41651623789877723
2.1378122052823865E8 0.7652429965425779 0.41328268652735267 0.23475700345742206 -0.41328268652735267 0.23475700345742206 -0.41328268652735267 0.7652429965425779 0.41328268652735267
2.1700747923551247E8 0.7705086395274787 0.41000589329179604 0.2294913604725213 -0.41000589329179604 0.2294913604725213 -0.41000589329179604 0.7705086395274787 0.41000589329179604
2.2028242671545094E8 0.7756933612911772 0.40668818435617954 0.2243066387088229 -0.40668818435617954 0.2243066387088229 -0.40668818435617954 0.7756933612911772 0.40668818435617954
2.23606797749979E8 0.7807967949082719 0.4033318700987302 0.21920320509172803 -0.4033318700987303 0.21920320509172803 -0.4033318700987303 0.7807967949082719 0.4033318700987302
2.2698133820991236E8 0.7858186542457304 0.3999392419703317 0.21418134575426967 -0.3999392419703317 0.21418134575426967 -0.3999392419703317 0.7858186542457304 0.3999392419703317
2.3040680522230446E8 0.7907587319706294 0.3965125695030599 0.20924126802937065 -0.3965125695030599 0.20924126802937065 -0.3965125695030599 0.7907587319706294 0.3965125695030599
2.338839673403185E8 0.7956168974494124 0.3930540974722991 0.20438310255058753 -0.3930540974722991 0.20438310255058753 -0.3930540974722991 0.7956168974494124 0.3930540974722991
2.37413604715664E8 0.8003930945497726 0.3895660432151599 0.19960690545022725 -0.3895660432151598 0.19960690545022725 -0.3895660432151598 0.8003930945497726 0.3895660432151599
2.4099650927363476E8 0.8050873393561696 0.38605059410713394 0.1949126606438304 -0.38605059410713394 0.1949126606438304 -0.38605059410713394 0.8050873393561696 0.38605059410713394
2.446334848907889E8 0.8096997178098115 0.3825099051981644 0.19030028219018846 -0.38250990519816436 0.19030028219018846 -0.38250990519816436 0.8096997178098115 0.3825099051981644
2.4832534757531032E8 0.8142303832837302 0.3789460970085831 0.18576961671626976 -0.37894609700858306 0.18576961671626976 -0.37894609700858306 0.8142303832837302 0.3789460970085831
2.5207292565009177E8 0.8186795541033053 0.37536125348468485 0.18132044589669474 -0.3753612534846848 0.18132044589669474 -0.3753612534846848 0.8186795541033053 0.37536125348468485
2.558770599385812E8 0.8230475110223023 0.37175742011305934 0.17695248897769772 -0.37175742011305934 0.17695248897769772 -0.37175742011305934 0.8230475110223023 0.37175742011305934
2.5973860395343277E8 0.8273345946641433 0.3681366021922038 0.17266540533585675 -0.36813660219220384 0.17266540533585675 -0.36813660219220384 0.8273345946641433 0.3681366021922038
